# HZ S RI R 50
700000000 -0.10113579133950963 -0.5692616412615759
702850062 -0.20763830452988594 -0.5444588626156011
705700124 -0.30388188569305147 -0.5038847852299649
708550186 -0.389706084228322 -0.4478381627214881
711400248 -0.4562686910876836 -0.3763240947197649
714250310 -0.5108068871813961 -0.28994186286668094
717100372 -0.5436475967854584 -0.19190723892802786
719950434 -0.5551633290165596 -0.08479123981538227
722800496 -0.5410455746051145 0.028867036780300982
725650558 -0.5028442386219483 0.14113521598599899
728500620 -0.43922331904106376 0.25241902219726065
731350682 -0.35207949576160835 0.3512470691087871
734200744 -0.24707885926788392 0.429940442108417
737050806 -0.13470541107527143 0.48760562492132387
739900868 -0.007495434247241557 0.5200054236857173
742750930 0.10731844379543914 0.5192119138530195
745600992 0.2239603455093231 0.4987261732005975
748451054 0.32733501606915183 0.45514633010210204
751301116 0.41586958161069265 0.39218514340930133
754151178 0.48622885695080337 0.311352950965352
757001240 0.5375729768512997 0.21676062579792088
759851302 0.5683207954638148 0.11284733642351556
762701364 0.5766563369524633 0.0038949562856380286
765551426 0.566760375176163 -0.10585820669823862
768401488 0.5352801498493405 -0.20906983942158291
771251550 0.4876435007479526 -0.30573660792637214
774101612 0.4220678468002013 -0.39435706006203924
776951674 0.3448831592368332 -0.4648452044632726
779801736 0.2581706769129693 -0.5186104069519238
782651798 0.16515518571933066 -0.5549606366410388
785501860 0.06580076753020757 -0.5707156022368148
788351922 -0.035453216476028296 -0.565756207530356
791201984 -0.13530881426885408 -0.5361384513360063
794052046 -0.22411081410211234 -0.48432692695393653
796902108 -0.30927191067743093 -0.4143972802950843
799752170 -0.3772414251353173 -0.32530858881905067
802602232 -0.4259114425460604 -0.22130464461822041
805452294 -0.4501753427190241 -0.11475849385904976
808302356 -0.45276518578507846 0.0009207669663266336
811152418 -0.43449949784425324 0.1053356501589985
814002480 -0.394309587546977 0.20190248966544444
816852542 -0.3394317999683288 0.2838120817899483
819702604 -0.26951823230585764 0.34985994570653234
822552666 -0.19154560362920137 0.39657064185697233
825402728 -0.10476101749527746 0.4229905536594292
828252790 -0.017225680876492087 0.4342383117562043
831102852 0.07246642842443896 0.42249488402416546
833952914 0.15915649625057626 0.390677400580566
836802976 0.2395260535600716 0.34299959416381987
839653038 0.3079198578556101 0.27914078601444786
842503100 0.3622929337998567 0.2048742008272031
845353162 0.4034889181244442 0.12064069798201768
848203224 0.42704375692806734 0.030525458126984248
851053286 0.43462297306209396 -0.059362182702388855
853903348 0.4232509811428401 -0.14526009109098395
856753410 0.397818029084331 -0.2243158413012792
859603472 0.35616232324679264 -0.2928520330790338
862453534 0.30244159225163175 -0.3520052409008378
865303596 0.23710584736456453 -0.3946057723014438
868153658 0.16305542547021812 -0.4200566307151856
871003720 0.08812483483688631 -0.43302196590425307
873853782 0.00996795908206449 -0.428535042099147
876703844 -0.06457451489151489 -0.4068974170402325
879553906 -0.13234032145382654 -0.37300138411622386
882403968 -0.19183808682375572 -0.325448893006729
885254030 -0.23960740438599568 -0.26883899906436076
888104092 -0.27658309730635705 -0.20814069107738972
890954154 -0.29834896703431146 -0.14209834880862607
893804216 -0.30964547796035236 -0.07462603695507816
896654278 -0.3065907648823787 -0.006940691335760531
899504340 -0.2931711997869865 0.05577695018536146
902354402 -0.2667022956353372 0.11202721609105319
905204464 -0.22887648119179138 0.16032541438200512
908054526 -0.1842085396735729 0.1987109463350928
910904588 -0.13190890027361704 0.22948646009106136
913754650 -0.07434316460394429 0.24397602485493688
916604712 -0.01604581269863645 0.2477539114812861
919454774 0.04048204556568207 0.2385695102805239
922304836 0.09444576915210241 0.21573819190079568
925154898 0.14176248182363488 0.1843854420372317
928004960 0.18277196783984562 0.1424106953705536
930855022 0.211709258742529 0.09766039045046827
933705084 0.2309992911725499 0.049096931228292236
936555146 0.24050925824425606 -0.0003257755770349769
939405208 0.23972602587471306 -0.046653506801637254
942255270 0.23091994967753535 -0.09147340153415831
945105332 0.2169563248155606 -0.13263556688419112
947955394 0.19385893851797556 -0.1648025878576355
950805456 0.1679551945865781 -0.19124526904656886
953655518 0.13600919361809377 -0.21185273600645949
956505580 0.10524851690809667 -0.22714734566248262
959355642 0.0718516606694569 -0.23429904239133204
962205704 0.036545475155679116 -0.237451038433931
965055766 0.0015842654682765185 -0.2331879587402688
967905828 -0.03040762833606041 -0.22718158456320262
970755890 -0.06061488467424847 -0.21564738123028804
973605952 -0.08788475197920435 -0.20135415211989022
976456014 -0.11227074683366577 -0.18144129756377447
979306076 -0.1335856518216919 -0.1616473095577129
982156138 -0.15095210912694945 -0.13985636098082935
985006200 -0.1632275272563468 -0.11548667001183155
987856262 -0.16596687151340683 -0.08929124253349675
990706324 -0.16763307295094315 -0.06133564993656471
993556386 -0.1666827991889709 -0.036107083187592905
996406448 -0.1606229839358109 -0.01333102834854234
999256510 -0.14726747669288745 0.006737741273330174
1002106572 -0.13132319029397474 0.030783424153872332
1004956634 -0.11498907074044258 0.053083837798623024
1007806696 -0.09654576395901271 0.0730264425467518
1010656758 -0.07703581301173217 0.08943959765016117
1013506820 -0.052780424371328384 0.10458017268886931
1016356882 -0.025718378873944427 0.11603407820081277
1019206944 0.0014491244083509752 0.12721802806573096
1022057006 0.0303816989611409 0.13395130291073815
1024907068 0.060058273779755374 0.1351044089603214
1027757130 0.09357872877186035 0.12573008501015445
1030607192 0.12118946826085887 0.11290521312525405
1033457254 0.1469544523496865 0.09248368221922733
1036307316 0.17060726841076546 0.06629735818654708
1039157378 0.18813081464201947 0.030002587989134466
1042007440 0.1977047879994385 -0.006902571379216774
1044857502 0.19581790320057324 -0.04820724648865591
1047707564 0.18609411566638806 -0.08929963762176125
1050557626 0.16805741964132023 -0.13709097293853467
1053407688 0.1428749432945672 -0.1766084479830443
1056257750 0.11118965757567001 -0.2124012018562535
1059107812 0.06805836656298206 -0.24197581073705032
1061957874 0.02500914652392733 -0.26384041955841614
1064807936 -0.023432230335001768 -0.2806839586478352
1067657998 -0.07652424125736647 -0.28423150648401696
1070508060 -0.13051586327627873 -0.2801657420094137
1073358122 -0.18244540987204816 -0.2655542169355535
1076208184 -0.22561523111552928 -0.24036697448174354
1079058246 -0.2668785810935051 -0.20742577105920398
1081908308 -0.2961792252196105 -0.16474261222919187
1084758370 -0.3202127475106599 -0.11277835489534496
1087608432 -0.3307764288317281 -0.0551755874457056
1090458494 -0.3269522454760379 0.0067484003364324694
1093308556 -0.3104811945733871 0.06834714813602151
1096158618 -0.28090204994488077 0.12828563706202245
1099008680 -0.23678190033298654 0.18440414131745192
1101858742 -0.1798320299044752 0.2345395256119189
1104708804 -0.11621237296843845 0.2720578613544079
1107558866 -0.04946930014224631 0.2948803216429291
1110408928 0.025580368886418986 0.3016549540968214
1113258990 0.09191572010715718 0.2901090028617788
1116109052 0.1519169241780833 0.2656216824844256
1118959114 0.21086959404996766 0.22377564532127456
1121809176 0.25384484889681386 0.17183273443836394
1124659238 0.28465075278890367 0.10914018217811183
1127509300 0.29677957579272213 0.04464647047498103
1130359362 0.29989521845109723 -0.02838860710434789
1133209424 0.28760730710105775 -0.09644218888442244
1136059486 0.2615413310880765 -0.16496234695701503
1138909548 0.22351190740038085 -0.22732215223237867
1141759610 0.17535164818074395 -0.2816892044155655
1144609672 0.11919307895228136 -0.3248280154279634
1147459734 0.06040072819783688 -0.3546958131937513
1150309796 -0.003452142508817443 -0.36781041124119923
1153159858 -0.07106565782298564 -0.36947067554673607
1156009920 -0.12965346220187965 -0.3558052267717938
1158859982 -0.18745670939792372 -0.31866976348771436
1161710044 -0.23888832466414528 -0.2703456112093662
1164560106 -0.2789874968351512 -0.21414701203267433
1167410168 -0.3090621842752008 -0.14193180750631984
1170260230 -0.3263542185174691 -0.06687124140436215
1173110292 -0.330180697151441 0.013710844216316617
1175960354 -0.3164221186313578 0.09552615850799014
1178810416 -0.28841097926557446 0.17154477940700574
1181660478 -0.25296288082283447 0.2327629061512827
1184510540 -0.2061243263611822 0.28220214258240794
1187360602 -0.15465647963532186 0.3162477034045704
1190210664 -0.0992306226616957 0.3363380966808059
1193060726 -0.03948368156440951 0.33493781332776773
1195910788 0.014800342262041572 0.31483917263430156
1198760850 0.06480191388101324 0.28514720914678043
1201610912 0.10857660486690517 0.2370692648102677
1204460974 0.1450221453237388 0.18247884527680844
1207311036 0.17497902012932562 0.11842434211630927
1210161098 0.19800644193187336 0.0549799395760157
1213011160 0.20865471272403785 -0.009768704977990927
1215861222 0.2086154829192492 -0.07197901638192901
1218711284 0.2031307764576861 -0.1262646580550054
1221561346 0.1873015866319025 -0.1706948963995816
1224411408 0.16397744629254646 -0.2062624795522323
1227261470 0.13649217072646758 -0.23068350452812197
1230111532 0.10230993774994529 -0.24004022568136182
1232961594 0.06096933450907892 -0.24065907275068874
1235811656 0.018203683636032583 -0.2277449315339904
1238661718 -0.02557262362620384 -0.20383086997353903
1241511780 -0.07111130269516894 -0.17018202720502668
1244361842 -0.10911178319080142 -0.13580304552521108
1247211904 -0.14365777493251872 -0.0924945795479322
1250061966 -0.16969847250293857 -0.05301565365231744
1252912028 -0.1865736522445819 -0.010918731422780773
1255762090 -0.20098576048329841 0.024238851126580967
1258612152 -0.20921937228523663 0.056102842145965164
1261462214 -0.2058411020990143 0.07694633604403765
1264312276 -0.19375145156504517 0.09163165226958367
1267162338 -0.17667665104711888 0.09788211346921229
1270012400 -0.15257142731410048 0.09953209031934016
1272862462 -0.1265775431000421 0.09602454439098838
1275712524 -0.09017390679929939 0.09412087176960333
1278562586 -0.06383924192437967 0.08299535073450814
1281412648 -0.041020444983987214 0.077363566849469
1284262710 -0.015412847067471083 0.0689522777024093
1287112772 0.004711338020985482 0.066910594367253
1289962834 0.02005412324660393 0.06623764797882871
1292812896 0.038266420821634395 0.07005527042936255
1295662958 0.04536116006855283 0.07581824985066682
1298513020 0.051582275028464644 0.0849847706449026
1301363082 0.05606313307707072 0.09822203967530801
1304213144 0.05780742864467626 0.10515996898596594
1307063206 0.05464515345316232 0.1133607908907481
1309913268 0.05554085894412888 0.11806416381833458
1312763330 0.04983387087235363 0.11213651613919226
1315613392 0.04345335734155709 0.10798111355634495
1318463454 0.04268643809380317 0.09404300179852211
1321313516 0.04145588097044789 0.07522539547607943
1324163578 0.043366112135162664 0.049916192992258815
1327013640 0.043984042354738566 0.019990849322846473
1329863702 0.041270236298934455 -0.010083738617315778
1332713764 0.03733444999754839 -0.04640044806804309
1335563826 0.03710151662295572 -0.07947016943369278
1338413888 0.03507004720495531 -0.10988556644226223
1341263950 0.032113509322298936 -0.13705498476074415
1344114012 0.02163729297171637 -0.1547573239838259
1346964074 0.010341271700012797 -0.16766791583159485
1349814136 -0.006237593495133535 -0.1689701177869967
1352664198 -0.030218957280795957 -0.16117955984894775
1355514260 -0.06001744885419558 -0.14987595439816795
1358364322 -0.09157909464973353 -0.12538216205357783
1361214384 -0.1214039319863224 -0.09467932291597159
1364064446 -0.15081774519189298 -0.05119740963026005
1366914508 -0.18099164706931575 -0.007288864344110852
1369764570 -0.19725450674847822 0.045297386772391
1372614632 -0.2163250118651916 0.08923620218173825
1375464694 -0.22137293455770635 0.14045918975896662
1378314756 -0.21396489863543872 0.1842007071529069
1381164818 -0.19726214181275087 0.21806218447151407
1384014880 -0.16570772091844907 0.24997628939452665
1386864942 -0.12343052026602404 0.2659997575607035
1389715004 -0.07793471162363416 0.27610046482339595
1392565066 -0.02512174152392164 0.27290433140852316
1395415128 0.03936545864724254 0.26423139952458047
1398265190 0.10490862718929003 0.24464518942932703
1401115252 0.1622904586211259 0.2268268093535573
1403965314 0.21367181730555054 0.19231494158077805
1406815376 0.25528196991749497 0.15354140003515288
1409665438 0.2919606348697001 0.11099094541595358
1412515500 0.3125889735428971 0.07179293895898457
1415365562 0.3251030041780675 0.027553117589659473
1418215624 0.31692778464190013 -0.01690472593506786
1421065686 0.3011173023528324 -0.05141115834689298
1423915748 0.2678123043131381 -0.09100280211473986
1426765810 0.21973848177860034 -0.12154140729573673
1429615872 0.1579732968822456 -0.14726291406831166
1432465934 0.09125815587709758 -0.17441278042009295
1435315996 0.02147373158704744 -0.18653106003555486
1438166058 -0.047678246833122086 -0.18797836101825177
1441016120 -0.11846276045569423 -0.18466490647910172
1443866182 -0.18004843476989246 -0.16392168816869804
1446716244 -0.228684038377358 -0.13424491941898548
1449566306 -0.26307101141494527 -0.09604395056117784
1452416368 -0.2832991488816396 -0.04422353534189126
1455266430 -0.29184162764410587 0.013412463578818225
1458116492 -0.2768298840193276 0.07183912025069579
1460966554 -0.2514022620184782 0.1312043896303002
1463816616 -0.20972638771810692 0.18880224053078412
1466666678 -0.16297775401410391 0.24223170509591235
1469516740 -0.1059589790848095 0.28421731194962635
1472366802 -0.050448093302228214 0.3187696862068622
1475216864 0.01359714872330636 0.3392214031949322
1478066926 0.06295085094450138 0.35019041738833895
1480916988 0.11256805892843325 0.352858737122147
1483767050 0.1518260639817661 0.34367650085829965
1486617112 0.18821864827438745 0.315604420996602
1489467174 0.20779915521234144 0.28282155338877607
1492317236 0.22050126945997736 0.23905808762663852
1495167298 0.22790308708825027 0.18364151299486914
1498017360 0.22849705450019273 0.12262304073953685
1500867422 0.21975629140307112 0.05508457100577347
1503717484 0.20642130138872686 -0.009445423167196931
1506567546 0.18771965625131987 -0.06850641944545631
1509417608 0.1630992427909117 -0.11907817049685722
1512267670 0.13455898808053413 -0.16395473215309428
1515117732 0.10021072645827377 -0.1941846376550493
1517967794 0.06475898020477064 -0.20997896322353138
1520817856 0.02678971121539695 -0.21420252246446692
1523667918 0.00018738160196679453 -0.2034809559258352
1526517980 -0.03300370771630918 -0.17511525942535092
1529368042 -0.06040378638358078 -0.13153367213565084
1532218104 -0.07849404254094547 -0.0806707067519013
1535068166 -0.09143784764352707 -0.027527908471864246
1537918228 -0.10395285310578342 0.02681092213872676
1540768290 -0.11460516816660055 0.0853930894754182
1543618352 -0.11487777838097396 0.13319683877623092
1546468414 -0.11210258663484386 0.16704665730188945
1549318476 -0.10602379692797327 0.194745099521202
1552168538 -0.0991657688614694 0.2084708684447264
1555018600 -0.085972324163221 0.21455114010263276
1557868662 -0.065023277881212 0.21202796705010774
1560718724 -0.04205971387473932 0.20099533465204614
1563568786 -0.024202292377772446 0.17751410588261018
1566418848 0.0060342849442644375 0.155766242563982
1569268910 0.032246192604501754 0.1365125270821554
1572118972 0.061277009394859396 0.11796461402150578
1574969034 0.09347804921079118 0.09312075347789718
1577819096 0.12172479221039952 0.0755575038603316
1580669158 0.1463149227226528 0.053963005787875766
1583519220 0.1666713504851146 0.046723635553716975
1586369282 0.17946340135520408 0.03668038471676302
1589219344 0.18899196181196823 0.030894368768168232
1592069406 0.18664163277809237 0.0358633197876169
1594919468 0.18741080198548613 0.0389590026950178
1597769530 0.1737330111447604 0.04783455751455959
1600619592 0.16144150898154183 0.05718713693521417
1603469654 0.13964692713398985 0.06836327575299403
1606319716 0.12711732559752417 0.06923824193275237
1609169778 0.10838935650168308 0.08066905284976064
1612019840 0.0882886331654469 0.07608931258215727
1614869902 0.0804005249632039 0.07317716778977482
1617719964 0.07253461560675722 0.05740294235217828
1620570026 0.06887014879897173 0.038846187490841136
1623420088 0.06727935488954483 0.010942594677948702
1626270150 0.06724489735955241 -0.0184946344015396
1629120212 0.0725434056185309 -0.04427653826244999
1631970274 0.08338292666153371 -0.07040051831306744
1634820336 0.08363959380516563 -0.08863825729658896
1637670398 0.0872646417729067 -0.10503303018348174
1640520460 0.09092246266571409 -0.11332331577564114
1643370522 0.08805910793587568 -0.10960661389129388
1646220584 0.08086721069163985 -0.09966934886354384
1649070646 0.07346596203163894 -0.08547404931024995
1651920708 0.06004703279993027 -0.061356692726212046
1654770770 0.04710552466554396 -0.028649966889126053
1657620832 0.033527835708203294 0.005269874105243148
1660470894 0.020705852310526605 0.03909030924057234
1663320956 0.0035927345839541188 0.07277206725852658
1666171018 -0.006800340173475717 0.11005789692918745
1669021080 -0.017033986907400645 0.14006683459241398
1671871142 -0.025574408599811704 0.16238339906653518
1674721204 -0.02410657326342467 0.18033506705009061
1677571266 -0.010514333015683148 0.19648733806120855
1680421328 0.008507897569666871 0.19785806808731674
1683271390 0.038101848188435525 0.1997576868652864
1686121452 0.07287849438105873 0.18232121364443996
1688971514 0.11582394037091649 0.171185160275009
1691821576 0.15685352838314043 0.15143919835376676
1694671638 0.20400457309200673 0.12792754315406052
1697521700 0.2490417031616792 0.09760287562439797
1700371762 0.2861704588604494 0.06730536061882579
1703221824 0.31391252224864474 0.03721846609401816
1706071886 0.3345167049071543 0.0018838997966767494
1708921948 0.3420440926622383 -0.030964920099096356
1711772010 0.337125626241048 -0.06323849871256206
1714622072 0.32206110868339816 -0.08994430046036223
1717472134 0.29381962009094736 -0.11649330743386474
1720322196 0.2599502382465208 -0.13728993657838406
1723172258 0.213199921621775 -0.15759333965226524
1726022320 0.16232467148790797 -0.17210400351405258
1728872382 0.10255445749894064 -0.1763907634299339
1731722444 0.04775569288410825 -0.1811408381699083
1734572506 -0.005606085737019574 -0.17729164044100054
1737422568 -0.05793244187926286 -0.1648751532956986
1740272630 -0.09541128309057782 -0.1367304043791502
1743122692 -0.12600591399871938 -0.10907151301744636
1745972754 -0.13820919808515736 -0.06532447472421504
1748822816 -0.13529605301868125 -0.020451555794238588
1751672878 -0.1220328551888182 0.029799777540662938
1754522940 -0.09300050840313022 0.0782591712286695
1757373002 -0.05243059391097682 0.12895989164272811
1760223064 -0.004568229360173561 0.17529149260937962
1763073126 0.04969065508270227 0.21044602329368994
1765923188 0.10499436316820038 0.23382258339053816
1768773250 0.16357916460259156 0.25331548107338486
1771623312 0.21778642331403777 0.2513775103849287
1774473374 0.26748103764537773 0.23800482226376551
1777323436 0.3110169331152141 0.2138880347411873
1780173498 0.3434483627429918 0.17725179405020655
1783023560 0.3658973886281763 0.13931945617028382
1785873622 0.3799475233099909 0.0822427907590293
1788723684 0.3822884521117591 0.022857410789412756
1791573746 0.37553943134829976 -0.04462527684907608
1794423808 0.36007071074578184 -0.09748503215261066
1797273870 0.3358988718132909 -0.1579145341651182
1800123932 0.308409644557539 -0.20846778035913152
1802973994 0.26828601600708524 -0.2474174674013369
1805824056 0.22224563462877497 -0.2718403743467958
1808674118 0.18133540304977075 -0.28484277086976983
