# HZ S RI R 50
700000000 0.0692714475935711 -0.6501765621449906
702850062 -0.05506141853828249 -0.6628511837563453
705700124 -0.17650537292499732 -0.6548182512759355
708550186 -0.29127697032752764 -0.6299578910553701
711400248 -0.39378771482502417 -0.583372625043346
714250310 -0.48658883524015445 -0.5185981396032965
717100372 -0.5625399535383719 -0.4317338644823829
719950434 -0.6203773935190408 -0.3211533638795676
722800496 -0.65460463932936 -0.19140204273223838
725650558 -0.6592320450121874 -0.04548857516185283
728500620 -0.6338960177621018 0.10429479545734135
731350682 -0.5822768525554401 0.21714724606274136
734200744 -0.5039740846447133 0.3598027839987965
737050806 -0.3922080875141767 0.4902838490603933
739900868 -0.2661868135665453 0.5858428632522332
742750930 -0.11971285510047351 0.6498934094055431
745600992 0.028381039547748434 0.6790312472181912
748451054 0.17608119553899823 0.6736578673765478
751301116 0.3125708836743004 0.6343996361150728
754151178 0.4353739845382445 0.5647659437606571
757001240 0.5332345922614493 0.4681428235159133
759851302 0.6080965440817246 0.3515131409870025
762701364 0.6579687517737834 0.2209247451665453
765551426 0.6816252467747557 0.08322153009008129
768401488 0.6818358434218292 -0.05447012861752265
771251550 0.6578112769052658 -0.18520224738483462
774101612 0.6148219401520216 -0.30331504962150874
776951674 0.5526384283501552 -0.4103794169492147
779801736 0.47842738244798194 -0.5025970033418031
782651798 0.3894738190883422 -0.57697749534196
785501860 0.2868663250489528 -0.6330647500805484
788351922 0.17767272107711174 -0.6643430832227644
791201984 0.05914872199667884 -0.6751954746308829
794052046 -0.06101044885741904 -0.6574146857241732
796902108 -0.18801706450377748 -0.6138525990481694
799752170 -0.29850500019685205 -0.5477707567277963
802602232 -0.4007457063581829 -0.4571229600109403
805452294 -0.48521931442750155 -0.3469249659361905
808302356 -0.545369061970193 -0.2267384855114404
811152418 -0.5812410786074101 -0.09848048572472878
814002480 -0.5914792211881386 0.02851916175605978
816852542 -0.5724129458064908 0.15476431165790724
819702604 -0.5323775955749533 0.2678139876156362
822552666 -0.4625993823763362 0.3690927488634062
825402728 -0.37170870683896856 0.4438419653420046
828252790 -0.2633556725777385 0.5053224766742471
831102852 -0.14289895133575437 0.5383717162221892
833952914 -0.013831012310253354 0.5443906998715987
836802976 0.11243647754091222 0.5177009276140234
839653038 0.22957629581571753 0.46602788929103334
842503100 0.3329571817250122 0.3922369129594005
845353162 0.41608659524886243 0.3023736648655938
848203224 0.48347920001387684 0.19759890993293946
851053286 0.5223269682656067 0.09267217577570058
853903348 0.5446314085835177 -0.014506069180827473
856753410 0.5449338339304654 -0.11692112686813318
859603472 0.5223834469704828 -0.21768007881264315
862453534 0.48371925163899354 -0.30545377682504393
865303596 0.4287845702065621 -0.3834310117546253
868153658 0.3570050287697536 -0.44722956646569206
871003720 0.276172835008971 -0.490353506619624
873853782 0.1859135743167752 -0.5203980936148709
876703844 0.09446266067853236 -0.5310764270915502
879553906 0.00397902827643597 -0.5223215202571618
882403968 -0.0818744086068555 -0.49656460842692596
885254030 -0.16040361907029715 -0.45474392262783253
888104092 -0.23150944010661442 -0.40035143020188413
890954154 -0.2899554294946561 -0.33461779198764174
893804216 -0.333980284182067 -0.2573655241366049
896654278 -0.36749126481790667 -0.17224952689419087
899504340 -0.38338137525629007 -0.0835148854533906
902354402 -0.38043580043228853 0.003908531552968192
905204464 -0.36232934360268654 0.08567989869716937
908054526 -0.32841701971205667 0.16215064963088904
910904588 -0.281517258023543 0.22969164028743055
913754650 -0.22519031483320875 0.280112054296818
916604712 -0.158119608731481 0.31703111476696527
919454774 -0.08370394893138114 0.3358298659181083
922304836 -0.009249628024208265 0.336493900991661
925154898 0.062204027030957856 0.32149700507245477
928004960 0.1307306127216373 0.2916136492557254
930855022 0.19071891134937893 0.24520454744810583
933705084 0.23803328367591406 0.19161103165141388
936555146 0.27507645300940775 0.13164851813484182
939405208 0.3000417949853104 0.06780848587475631
942255270 0.30985817215760547 0.00569872390485512
945105332 0.31115875182542885 -0.05523105405613808
947955394 0.3008270546934334 -0.10889615682510449
950805456 0.2819070722392279 -0.15524446960822383
953655518 0.25097923789911214 -0.20009153958480996
956505580 0.22058026123635766 -0.23317645652550018
959355642 0.18142622600539474 -0.26164592070575815
962205704 0.13523075993457714 -0.283503837337827
965055766 0.08980696574557769 -0.29994309057460694
967905828 0.04202279686186576 -0.311476882044518
970755890 -0.003498213090401263 -0.315565426890555
973605952 -0.04871471725858885 -0.31403722784511984
976456014 -0.09027415172139973 -0.30801109294528733
979306076 -0.12721062207124256 -0.29935352588278075
982156138 -0.16157937341498044 -0.2845922702666594
985006200 -0.18969037373276337 -0.2648221929381834
987856262 -0.21094952270128764 -0.24873622754360653
990706324 -0.22292980659757244 -0.2262505870194984
993556386 -0.2322777425729235 -0.19365291230376921
996406448 -0.23238137266335626 -0.16291261469380927
999256510 -0.2262492011040161 -0.1306497379735684
1002106572 -0.21450321506920197 -0.09511156487492763
1004956634 -0.19956868161366614 -0.05319196111082561
1007806696 -0.18153983427208648 -0.01388373621488652
1010656758 -0.16052398695576406 0.024472942212817136
1013506820 -0.13802597711891545 0.06125257519959018
1016356882 -0.11196298997983287 0.10662466824758601
1019206944 -0.07767209446521099 0.14745972903300839
1022057006 -0.041653008138785017 0.1842675841812511
1024907068 -0.0048679983231187125 0.20919233443022536
1027757130 0.038608593118975965 0.2242516979021601
1030607192 0.08638267482094557 0.23048526032322386
1033457254 0.13157740677283725 0.22421783172594573
1036307316 0.17877233429531392 0.20370795712896628
1039157378 0.2235082403461838 0.17120363155779675
1042007440 0.2590186352381614 0.12421165730849915
1044857502 0.2876356691961393 0.07128526755108454
1047707564 0.30655370552005273 0.01125986923244578
1050557626 0.317163694232743 -0.06059794630083314
1053407688 0.31628596633253236 -0.13391553680449558
1056257750 0.29938799667707044 -0.2045696846485857
1059107812 0.27175538481641387 -0.2758389912981628
1061957874 0.232547313382646 -0.3354573039223967
1064807936 0.17358461408909742 -0.3913516642906707
1067657998 0.10322032860765543 -0.43174922058112863
1070508060 0.030020811589539124 -0.45573860482489803
1073358122 -0.06303358458277182 -0.4668251669359599
1076208184 -0.1590564369475534 -0.45502459369859816
1079058246 -0.24730907662304058 -0.4279075319693405
1081908308 -0.3312020228885271 -0.3820961326745608
1084758370 -0.4135170747813393 -0.32507017784462783
1087608432 -0.4773058275996858 -0.24803956351618847
1090458494 -0.5247894965138696 -0.16208702381076914
1093308556 -0.5511457586978683 -0.066572070991886
1096158618 -0.5590156937044654 0.025987144960236488
1099008680 -0.5461900402795045 0.11598484377231899
1101858742 -0.5093772997009176 0.2029278553220277
1104708804 -0.45861511652236053 0.2792985737602758
1107558866 -0.38557024311592675 0.34625366947775443
1110408928 -0.2985216760601317 0.39834830460886894
1113258990 -0.20355413434612377 0.4297032093482395
1116109052 -0.10284648089849337 0.4433482319359235
1118959114 0.004899911770937599 0.44166107848168323
1121809176 0.11014396430176963 0.4221968910996126
1124659238 0.2079615886358555 0.37437133125812455
1127509300 0.30057212436364394 0.3149743263827927
1130359362 0.3829233833961741 0.2303274754596539
1133209424 0.4502829852463058 0.12510667453656385
1136059486 0.4867686390460613 0.011388659888031281
1138909548 0.5068393992165786 -0.11936057872341559
1141759610 0.4946966820777375 -0.2542100342645096
1144609672 0.44289293774125654 -0.3961148341154701
1147459734 0.3626070875978984 -0.5184457814146625
1150309796 0.26564481720286504 -0.6183435176376078
1153159858 0.14452650013874355 -0.7043915479269692
1156009920 0.008822702946802301 -0.7554513173120224
1158859982 -0.12925167657341904 -0.7575207882097762
1161710044 -0.26317044489260616 -0.7333127250968632
1164560106 -0.38735382526344264 -0.6658920246459942
1167410168 -0.47330207082302955 -0.5827155452332311
1170260230 -0.5482666695027245 -0.46659741952246475
1173110292 -0.591823237543956 -0.3474789882222148
1175960354 -0.6108814521539143 -0.20945272287364317
1178810416 -0.600609607312134 -0.07423174469638545
1181660478 -0.5691086493265671 0.04737287252827358
1184510540 -0.5224236949897924 0.15669003444026558
1187360602 -0.4558241083445809 0.2569183731735353
1190210664 -0.38709658334104396 0.3394125485621303
1193060726 -0.3062279858442336 0.39895158406658277
1195910788 -0.21359922038997778 0.4377365476036965
1198760850 -0.12060946077944465 0.4578325788364287
1201610912 -0.03179005222303932 0.4591502933865193
1204460974 0.06435379489844781 0.43669913202427496
1207311036 0.15772157536324957 0.39206914139677174
1210161098 0.24201346243254632 0.3254535046883588
1213011160 0.3117533574149401 0.2504155566483253
1215861222 0.3726861803685878 0.16210256909470264
1218711284 0.41268965063910856 0.062056357545600405
1221561346 0.4316375103198215 -0.0409000327421521
1224411408 0.4278445493848979 -0.13374349232412847
1227261470 0.40620413190190585 -0.22461193289879033
1230111532 0.35662612018277623 -0.29527014353887726
1232961594 0.28372746227472345 -0.3532937868408628
1235811656 0.1968971807909477 -0.38438728041219866
1238661718 0.10148367369589086 -0.38762472284084637
1241511780 -0.0026379287072996875 -0.36998943513727345
1244361842 -0.09352305898332007 -0.3350877205825164
1247211904 -0.18663750013426095 -0.2815863606762716
1250061966 -0.2647859634008146 -0.2255694921758926
1252912028 -0.32564205428009435 -0.1630621820467568
1255762090 -0.3797600312839743 -0.10244058777113468
1258612152 -0.4216568174955495 -0.041581518401238596
1261462214 -0.4388386267904432 0.012593434787262096
1264312276 -0.4476704531390784 0.051006936167063574
1267162338 -0.44126470602345974 0.08222407697413738
1270012400 -0.4305138393024529 0.10407070746768568
1272862462 -0.40396776816293467 0.1147788330983984
1275712524 -0.3485315356803187 0.1326519198473137
1278562586 -0.31872602422886115 0.13165790530187566
1281412648 -0.280627339463351 0.12608738035937403
1284262710 -0.24036345001191856 0.11719357418081087
1287112772 -0.2084888972792406 0.10995832940385654
1289962834 -0.1762640690834774 0.10633790799094224
1292812896 -0.1551359308167829 0.1056536191529916
1295662958 -0.13154041872712546 0.11306827567685059
1298513020 -0.11829329498560516 0.12088283540416096
1301363082 -0.10576930928731727 0.1344782186839326
1304213144 -0.09560987533675165 0.1419429479918311
1307063206 -0.08506831725176311 0.15615584931887155
1309913268 -0.08191208852466406 0.17237145195888734
1312763330 -0.06926359762094458 0.1780069289172811
1315613392 -0.05430392971393453 0.17660169743564993
1318463454 -0.04133648582504388 0.16722099553180123
1321313516 -0.01729625590833835 0.14263695349713246
1324163578 0.011298943907546705 0.11439907622559474
1327013640 0.047716890440096846 0.06733433693140614
1329863702 0.07569009154634736 0.010584341169422614
1332713764 0.09869917387757722 -0.047142751538417516
1335563826 0.12563630581029522 -0.124257195873266
1338413888 0.14696942930873944 -0.2014724891536538
1341263950 0.15787722844383723 -0.2604460416117859
1344114012 0.1507586529174204 -0.33175774131609387
1346964074 0.12979025306470654 -0.3802519226124185
1349814136 0.0900601316360076 -0.41335037594096274
1352664198 0.031032978865975138 -0.41690815552002736
1355514260 -0.04417084436634671 -0.4069925251325698
1358364322 -0.1455427580437296 -0.37848009261084653
1361214384 -0.2280602700512701 -0.32876675634237146
1364064446 -0.31235617595418996 -0.25894772059680315
1366914508 -0.40196393172701345 -0.175337226503946
1369764570 -0.4713049052038086 -0.08178644020200895
1372614632 -0.5232511669560023 -0.00499144705314079
1375464694 -0.56215377861621 0.08335030216359346
1378314756 -0.577773718341485 0.16718144750084335
1381164818 -0.5822755925058715 0.24768590329841977
1384014880 -0.5581913993896135 0.310145821722061
1386864942 -0.5315836300438641 0.375224408736402
1389715004 -0.47322483633587226 0.4287524219319082
1392565066 -0.4052436561999728 0.471161582225378
1395415128 -0.3197610730404783 0.508463997752754
1398265190 -0.21019112978349258 0.5456086627306768
1401115252 -0.08823109566990187 0.565972468613761
1403965314 0.03192212687047718 0.5703706248070507
1406815376 0.1622263974833038 0.5577279952138422
1409665438 0.3045513862238332 0.528897089514534
1412515500 0.4421686751990504 0.47841256023837264
1415365562 0.5477874522954058 0.40328533590049315
1418215624 0.6499771371904517 0.29883974759138693
1421065686 0.7013417349151542 0.15591872605098017
1423915748 0.7000756023031934 -0.0065817685978613
1426765810 0.6426649934474122 -0.1915524122357517
1429615872 0.5085645345326855 -0.3577944565026264
1432465934 0.313052173227641 -0.5040718271349708
1435315996 0.09946224245263044 -0.5913968284026457
1438166058 -0.11916836496195049 -0.6144945086854123
1441016120 -0.31885840095195694 -0.5882979743201605
1443866182 -0.5000808085765852 -0.5432163960355654
1446716244 -0.6297385290730377 -0.4737456100444936
1449566306 -0.7112365104601184 -0.3826306887730721
1452416368 -0.7620676118180144 -0.2881816069399893
1455266430 -0.7762436698765391 -0.18959162356567766
1458116492 -0.7694238582446289 -0.08379671606765685
1460966554 -0.7384106443397372 0.014334872735303966
1463816616 -0.6908525892952578 0.12758471424741008
1466666678 -0.6217057366762643 0.25017392042846986
1469516740 -0.552797344809598 0.3778307008364266
1472366802 -0.4734899832900034 0.5160647821416805
1475216864 -0.3990795923960265 0.6748629786519545
1478066926 -0.3365257860146005 0.8174827339431203
1480916988 -0.26778293203314224 0.9634423865962968
1483767050 -0.1891013339019065 1.1139878699170787
1486617112 -0.1099328534754213 1.2391214145670912
1489467174 0.01485602984598452 1.30933013524385
1492317236 0.14066722972192777 1.3720452009824249
1495167298 0.27259197467145435 1.3847840443723247
1498017360 0.48487852934937803 1.2702105188037205
1500867422 0.690278483811602 1.0454740415999297
1503717484 0.8531964556922725 0.7539311409037912
1506567546 0.9262468142987395 0.3991419871971229
1509417608 0.8692728467150899 0.023897902705544444
1512267670 0.7230378319603268 -0.28634979165581603
1515117732 0.5215504468460982 -0.49203129396913936
1517967794 0.3243104995901709 -0.5855784275711957
1520817856 0.140086001240185 -0.6132986958561636
1523667918 0.009496028458437696 -0.5904777095891601
1526517980 -0.09798582639430968 -0.5160079183150227
1529368042 -0.18278648455014213 -0.40383198630959144
1532218104 -0.2444190267812903 -0.2783766366750499
1535068166 -0.28457515616269713 -0.1366479161603871
1537918228 -0.32056442496036885 -0.008385745597122659
1540768290 -0.3510415091619194 0.1242782221608143
1543618352 -0.38031725505119734 0.24193173279708788
1546468414 -0.39789563110254156 0.33649063109751304
1549318476 -0.40961223679032843 0.4389286879313643
1552168538 -0.4182582626939913 0.5009472538633329
1555018600 -0.42106376882597196 0.5563462002633235
1557868662 -0.4091752077544792 0.5993071769367193
1560718724 -0.37966854241835374 0.6226043473284673
1563568786 -0.2188154878460855 0.6105645471749266
1566418848 -0.17805854304049604 0.5858806340652964
1569268910 -0.09948387519471052 0.5508860766582481
1572118972 -0.03772150701269552 0.49732593574348144
1574969034 0.03771838482573881 0.4494627410951332
1577819096 0.11655221708583154 0.36075439286321936
1580669158 0.19300927010431812 0.30035354315580776
1583519220 0.2648637830836083 0.23642179602016475
1586369282 0.30876793043336453 0.16978177480292517
1589219344 0.3490975635816443 0.11405868971890412
1592069406 0.3822225269297126 0.07306716048784426
1594919468 0.38955232658828726 0.04972509404027931
1597769530 0.3976494221079552 0.04156713858578204
1600619592 0.44615157890277646 0.06592851699501985
1603469654 0.43737122681552193 0.09861526033522103
1606319716 0.41926455689781017 0.1359174945803566
1609169778 0.40513040482641716 0.1732219294405456
1612019840 0.3983945990952553 0.20957395816818808
1614869902 0.3939624336151611 0.2169300917982087
1617719964 0.3992740384837274 0.22313878293137504
1620570026 0.3854393066458048 0.19410826411002752
1623420088 0.38984852490604743 0.14632887098117625
1626270150 0.36153070598741716 0.08201433015228761
1629120212 0.33787918134053657 0.014591118090176597
1631970274 0.30366523710372545 -0.06023106014122335
1634820336 0.2582382630608451 -0.11796801269279165
1637670398 0.2130666693268802 -0.18064064943075092
1640520460 0.1613239908573724 -0.20588991574059984
1643370522 0.1205735370621887 -0.2192741045171019
1646220584 0.0835256133557653 -0.20805830408898915
1649070646 0.047441673323861844 -0.18132822831868406
1651920708 0.027692646137497896 -0.12038569745426957
1654770770 0.00456469272519267 -0.04307927260670825
1657620832 -0.017212941970573527 0.03548329488254108
1660470894 -0.052806494088756754 0.12043350749153574
1663320956 -0.0727164549089141 0.2089046275580837
1666171018 -0.09725654158334977 0.30856507875721245
1669021080 -0.100869488621093 0.40246235712605616
1671871142 -0.1082250482367122 0.4952549887075283
1674721204 -0.10233551454324043 0.5853366545166032
1677571266 -0.06485995850781452 0.6692253739195708
1680421328 -0.014856123931945115 0.7447001075915355
1683271390 0.07402746877699294 0.810172300721797
1686121452 0.18603366581318187 0.8553671928847775
1688971514 0.33191221277701094 0.8711416159906336
1691821576 0.5368110005550923 0.8398264026277625
1694671638 0.7342011721992391 0.775622827746791
1697521700 0.9272826372154723 0.6558877722768691
1700371762 1.0476880016184589 0.4610874395914429
1703221824 1.1515499892761063 0.25007251013146886
1706071886 1.1573157330717634 0.0014534852788593287
1708921948 1.0807880762151412 -0.1723760755923258
1711772010 0.9694977739182253 -0.35606823687884903
1714622072 0.8430698038492683 -0.4511674591101475
1717472134 0.6797384028315756 -0.52709600281228
1720322196 0.51609050137417 -0.5549550118709999
1723172258 0.34968921834165473 -0.5729186846925336
1726022320 0.19855110451155794 -0.5466614689389432
1728872382 0.05815335859310278 -0.4979213811713902
1731722444 -0.050674844503536404 -0.4371849937878306
1734572506 -0.15565778909305011 -0.36329335748855734
1737422568 -0.23318074178229398 -0.29843523088442525
1740272630 -0.28938330814285873 -0.18662523752744836
1743122692 -0.3289726132504015 -0.09341727208659341
1745972754 -0.3443139589445134 0.025044080634585505
1748822816 -0.33292396558873794 0.14592564518494539
1751672878 -0.29794882025801644 0.2880272571548985
1754522940 -0.22861573037533692 0.4450069068040699
1757373002 -0.1063906390957979 0.610553730727612
1760223064 0.0830263587877388 0.7643116704722763
1763073126 0.30775363381649834 0.8877989462985777
1765923188 0.5767997655087883 0.9345757079209932
1768773250 0.8630203971117244 0.9200430553400986
1771623312 1.1586362648544226 0.7973353817575984
1774473374 1.3123571829396585 0.5695562421541854
1777323436 1.3914407590560156 0.3011288148194342
1780173498 1.3861540684148574 -0.0007848665459614815
1783023560 1.2756385070451028 -0.25022612408989414
1785873622 1.0873723321886106 -0.4110949320212189
1788723684 0.9009337263283822 -0.5613826428737356
1791573746 0.6940861764508922 -0.639718855003091
1794423808 0.5162088788893255 -0.7084206686952528
1797273870 0.3615590763892484 -0.7403697598602353
1800123932 0.2299407410836947 -0.7563231559309812
1802973994 0.11536342276607829 -0.7362343728819957
1805824056 0.037914063542432805 -0.7237998020276067
1808674118 -0.04662491092939674 -0.6719589661642348
1811524180 -0.10267829142530384 -0.6134693506993715
1814374242 -0.15076250813245096 -0.5343129140507669
1817224304 -0.1893164036576655 -0.4502830453820095
1820074366 -0.19694857493101106 -0.34467988286784956
