# HZ S RI R 50
700000000 0.06905847959341088 -0.6506684731838474
702850062 -0.055921616792973416 -0.6624079808335959
705700124 -0.1788396266275424 -0.6548565539866351
708550186 -0.2916107216576732 -0.6292199440678188
711400248 -0.39273857299245873 -0.5838286257413857
714250310 -0.4841209104305734 -0.5197648275510861
717100372 -0.5637552799868981 -0.4293747997583174
719950434 -0.6200085491716728 -0.3209229995281729
722800496 -0.6539898905483382 -0.19098757616851386
725650558 -0.6589595664332505 -0.04438966072383409
728500620 -0.6332271361200876 0.10546907668862812
731350682 -0.5822051010892432 0.21694540429017833
734200744 -0.503899874114789 0.3608217643304628
737050806 -0.39153359963198214 0.4898562399459782
739900868 -0.2652450416764762 0.5859975305733639
742750930 -0.11761517352397419 0.6494285549765303
745600992 0.030140454185345323 0.6785315431482926
748451054 0.17703684197241099 0.6731179393956807
751301116 0.312071425998234 0.6354074021185327
754151178 0.436605515842366 0.5641299217888862
757001240 0.533148132434687 0.4677202723404524
759851302 0.6091134213909154 0.3501145390366342
762701364 0.6573524453270785 0.219685941509969
765551426 0.6810977495132071 0.08324121715911796
768401488 0.6805293236231988 -0.05216276103717162
771251550 0.6572118145200894 -0.18362014603634816
774101612 0.6122516631869701 -0.30611879867050606
776951674 0.5524821674729838 -0.41116551688707365
779801736 0.4754885063038279 -0.5041520787646804
782651798 0.387893719293662 -0.5777750600438204
785501860 0.28630474757184776 -0.6326697498638953
788351922 0.17553985734151964 -0.6643199252844608
791201984 0.05976042019333422 -0.6763163708135108
794052046 -0.06357505168879073 -0.6578836286439004
796902108 -0.18561823196913319 -0.612976279800045
799752170 -0.2990881476575815 -0.546622359932565
802602232 -0.400465797459741 -0.455718705486169
805452294 -0.48526395804567884 -0.34598977847126655
808302356 -0.5448401644094286 -0.22747618743476486
811152418 -0.5807226775808665 -0.09990795549008667
814002480 -0.5912818320894817 0.02975272012359305
816852542 -0.5745572830043506 0.153422000582992
819702604 -0.5303375848061278 0.26643627168362155
822552666 -0.4621850150837184 0.36789632403918016
825402728 -0.3706050448063227 0.4463895631218951
828252790 -0.26366508377082254 0.5052743975284287
831102852 -0.14314665926769451 0.5389533122959153
833952914 -0.013899257888847662 0.5428097838919304
836802976 0.11236139265953757 0.5169736726067093
839653038 0.22869933437927564 0.4658273402796783
842503100 0.3318653243438262 0.3924708702459162
845353162 0.4167624754614928 0.30071495665779985
848203224 0.48225553416451855 0.19773162967449956
851053286 0.5227312509310198 0.09121484083408961
853903348 0.5450353139940115 -0.01574249634860569
856753410 0.5439308809995076 -0.11746794127714669
859603472 0.5228545249620092 -0.21750964160754477
862453534 0.48358458104854735 -0.30579573638395835
865303596 0.42839600388318294 -0.38380761870267793
868153658 0.3568149641443436 -0.4466960519287197
871003720 0.27735485351481964 -0.4904823020623298
873853782 0.18665254885720356 -0.5188472719982636
876703844 0.09291043165994756 -0.5298655898166853
879553906 0.0022064349626806814 -0.5204890513221542
882403968 -0.08338418144534232 -0.49571907742118754
885254030 -0.16115473465808422 -0.453641328049443
888104092 -0.23294312212157553 -0.39925874526755595
890954154 -0.2893777649174155 -0.3331092803650922
893804216 -0.33425900793629804 -0.25607846502308096
896654278 -0.3679405252126457 -0.17211185356398687
899504340 -0.38448681251836225 -0.08294032380068009
902354402 -0.3808182744934538 0.0021509328741677286
905204464 -0.3623901295891338 0.08519322018676292
908054526 -0.32835836434964366 0.16252974731315836
910904588 -0.2813160868747765 0.2295420284777078
913754650 -0.22416693707229915 0.27974671495183795
916604712 -0.15756570700810643 0.31629097741477125
919454774 -0.08079787436822715 0.3348822878067216
922304836 -0.00856978809480071 0.3357813522211747
925154898 0.06304727509681392 0.32094004563858913
928004960 0.12882228278259983 0.2908617297394349
930855022 0.1910462706731589 0.2446329926446567
933705084 0.23806627078673748 0.19144469693168242
936555146 0.27562729180645246 0.13206860326012212
939405208 0.2996607005758708 0.06792059697624177
942255270 0.30991970228556304 0.005601381366371206
945105332 0.3112306496902789 -0.0553373716872768
947955394 0.3001269288177563 -0.10954777213854486
950805456 0.2793664544039125 -0.15778933826201239
953655518 0.2502808339475981 -0.19903176235797385
956505580 0.21893840423684058 -0.23407058637210562
959355642 0.17937152845655313 -0.26258552103671423
962205704 0.13545229919102336 -0.2817581204145937
965055766 0.08982724452469903 -0.3006560782154969
967905828 0.04157391229451621 -0.3095952177103163
970755890 -0.003934960925992576 -0.3150945219823519
973605952 -0.04892957673344603 -0.3141533809523583
976456014 -0.09036505089385759 -0.3083445119031847
979306076 -0.12809411645433594 -0.29953222619060627
982156138 -0.1607726306497724 -0.28539090203298423
985006200 -0.18936631770421056 -0.2641699309209178
987856262 -0.2107836093931284 -0.24879202541214784
990706324 -0.22516684248847033 -0.2241434652398725
993556386 -0.23285995316329045 -0.19334151139667397
996406448 -0.23098179384706918 -0.16308969869571124
999256510 -0.22729239936553403 -0.13068996169749503
1002106572 -0.2140523272716569 -0.09463388007531527
1004956634 -0.200085057775584 -0.05353791410238955
1007806696 -0.18117713503023775 -0.014789079814108368
1010656758 -0.1605460450824391 0.02680146379721442
1013506820 -0.13730288365330176 0.06080979165381424
1016356882 -0.10891531000934804 0.10379540888256297
1019206944 -0.07635082419435046 0.1481623112692194
1022057006 -0.042187034112566024 0.18319998118292385
1024907068 -0.0010247777421217568 0.2068650286960004
1027757130 0.03929463835690815 0.2240243557634718
1030607192 0.08404971899416547 0.2296170836831436
1033457254 0.13261032491486396 0.22366749257394358
1036307316 0.17981891777947706 0.20360422351550192
1039157378 0.2223424969923566 0.17104813808333172
1042007440 0.2600188070941277 0.125352502361462
1044857502 0.2874439087072314 0.07086668331961415
1047707564 0.30794004850285417 0.010726546812021282
1050557626 0.31728501637481027 -0.060315090772620816
1053407688 0.3161581140873889 -0.13377931031391918
1056257750 0.30045283099349346 -0.20580207647168525
1059107812 0.27038910740404604 -0.2754633778242457
1061957874 0.23062472550244265 -0.3363883547701724
1064807936 0.1727962715737666 -0.38972599120953527
1067657998 0.10180845316571856 -0.4313147699413668
1070508060 0.02661940021978756 -0.4562202210177557
1073358122 -0.06492255919232183 -0.46537834083517204
1076208184 -0.15797415872277648 -0.4538996285890841
1079058246 -0.24769969999694869 -0.427351043008118
1081908308 -0.33116216360102296 -0.38234580756527237
1084758370 -0.4139107920168326 -0.32417514004042197
1087608432 -0.47785015620025095 -0.24600216319879362
1090458494 -0.5240035942514277 -0.15863453987445797
1093308556 -0.5494757182208894 -0.07017002585748602
1096158618 -0.5596520305903611 0.026200844060907932
1099008680 -0.5442972040487558 0.1252828704140786
1101858742 -0.507604835796323 0.2008616048755669
1104708804 -0.45583612068217866 0.27669865954643275
1107558866 -0.38369403964832555 0.3451772951264468
1110408928 -0.2986013231852846 0.39687129588612147
1113258990 -0.20273915950934746 0.43019707184324874
1116109052 -0.10247287236496416 0.4445087317162015
1118959114 0.005302190075628254 0.4421952275674557
1121809176 0.11055192129595377 0.42170765933784576
1124659238 0.20892362524073807 0.37283181383874414
1127509300 0.2971932078706812 0.3168408776778374
1130359362 0.38309242040919844 0.23051037017659495
1133209424 0.443271711786031 0.12800343787783028
1136059486 0.48662262045221044 0.00903960752600584
1138909548 0.5055118479059235 -0.11858374200351036
1141759610 0.4926488379500773 -0.2550000227577555
1144609672 0.4407747654672475 -0.3964153217601913
1147459734 0.3624336652756622 -0.5193188547939994
1150309796 0.264843371613753 -0.6174036272504209
1153159858 0.14563384914127206 -0.7051598169832857
1156009920 0.006667213892607028 -0.7524377563038226
1158859982 -0.129486420817877 -0.7567704260754349
1161710044 -0.26434644833810667 -0.7290120781819559
1164560106 -0.3851186297258142 -0.6678279452106605
1167410168 -0.4773833423108356 -0.5822080392541888
1170260230 -0.5450172305651441 -0.46737308648739057
1173110292 -0.5931384458915052 -0.3459124853674144
1175960354 -0.6099772346744198 -0.20901646599995802
1178810416 -0.5984980982691781 -0.07276284169153169
1181660478 -0.5693281532310207 0.048184290715854276
1184510540 -0.5210097754282502 0.1555674140884759
1187360602 -0.4578119981394815 0.2565924964044391
1190210664 -0.38773110458288085 0.3380309085613742
1193060726 -0.30629800992705297 0.3981976177991534
1195910788 -0.21385519071890463 0.4377027332179871
1198760850 -0.12246747602691645 0.45662017382710207
1201610912 -0.02754614822119739 0.45853772734877385
1204460974 0.06459209428782343 0.4362320394180545
1207311036 0.1588542866092481 0.39140660887403345
1210161098 0.24262122004398598 0.32625591598342646
1213011160 0.3136683153787027 0.2510301371814031
1215861222 0.3728259460399704 0.1611927585430085
1218711284 0.41455906452987606 0.06143817636427899
1221561346 0.43283341847874357 -0.04113205129072279
1224411408 0.42932301372649434 -0.1344639185172922
1227261470 0.40562747776076485 -0.2248244882797018
1230111532 0.35499118408639624 -0.29334914026400816
1232961594 0.2825766582140206 -0.35021071259502434
1235811656 0.19578572687497192 -0.38377631544652335
1238661718 0.10192665139872611 -0.3904671526422801
1241511780 -0.0013597903318126215 -0.3711120649724439
1244361842 -0.09577386168915168 -0.33490200365182715
1247211904 -0.18777720380111218 -0.28230910450999924
1250061966 -0.2636383447657123 -0.22525186400613925
1252912028 -0.32592025301156896 -0.1641684690680652
1255762090 -0.3798537646376639 -0.10411042492428305
1258612152 -0.422037330712501 -0.04118626387483601
1261462214 -0.44037911962952947 0.007831565824357251
1264312276 -0.44705839629132593 0.05228832913286453
1267162338 -0.4437917874286957 0.08175253605897131
1270012400 -0.4287278316976742 0.10349713471463065
1272862462 -0.4039621819920897 0.11714325718725968
1275712524 -0.3473568160428179 0.13093924597564485
1278562586 -0.3165776927150185 0.13297319322793835
1281412648 -0.2804498609573484 0.12599326097129857
1284262710 -0.24191250247483856 0.11851474636583419
1287112772 -0.2090885722074001 0.10863387643304852
1289962834 -0.17826243541038977 0.10887482967966655
1292812896 -0.15572030303394824 0.10642192376591895
1295662958 -0.13176148387464556 0.109067442398383
1298513020 -0.11887195965030932 0.11939543908085068
1301363082 -0.10462040918728424 0.13414796123152872
1304213144 -0.09726658864274455 0.1394198441409066
1307063206 -0.08576070849507411 0.15890220228937663
1309913268 -0.07798079269822836 0.17097047470549379
1312763330 -0.06883478159357932 0.1771577097763312
1315613392 -0.05392480584871604 0.17203752252934704
1318463454 -0.04448264152335118 0.16556347744574565
1321313516 -0.01674132036699427 0.14427504822599457
1324163578 0.009436547976780155 0.10850694561011044
1327013640 0.041262073033657885 0.0689991568937717
1329863702 0.07365381705814159 0.014010667224260491
1332713764 0.10046524914280941 -0.047952111191803544
1335563826 0.12745097135868633 -0.1250722156359003
1338413888 0.1474656634581264 -0.19916271010944858
1341263950 0.1578267121793144 -0.26132216843086464
1344114012 0.14771007384845994 -0.3253731716141372
1346964074 0.13417058443980306 -0.37756318764686647
1349814136 0.08906244741232326 -0.4096981328006175
1352664198 0.026209463178582897 -0.4114155852709388
1355514260 -0.05564452465741067 -0.4114111722716115
1358364322 -0.14637186739924965 -0.3760463327766486
1361214384 -0.2279822023034916 -0.3257891061475386
1364064446 -0.31237096161246786 -0.2594632563394583
1366914508 -0.4029093571273961 -0.1737454393393545
1369764570 -0.46931110381551844 -0.0814417262842475
1372614632 -0.5217593245898123 -0.0038842301178757936
1375464694 -0.558396675077508 0.08510654215765433
1378314756 -0.5792249945022392 0.1651868046723974
1381164818 -0.5825835846794186 0.24675647464555175
1384014880 -0.5604813473224012 0.31087644369152306
1386864942 -0.5284553775253255 0.3724436969617294
1389715004 -0.47273318471844095 0.4280525453098001
1392565066 -0.4040028482593735 0.47006124070824074
1395415128 -0.31634001083128543 0.5060982824135338
1398265190 -0.21135101506173634 0.5474090330680895
1401115252 -0.08856762376732413 0.5666222398399536
1403965314 0.03330718964443183 0.5679811045146498
1406815376 0.16809267322768798 0.5566665428073094
1409665438 0.3061293088036292 0.5264545381155974
1412515500 0.43983834749382966 0.4771679320273582
1415365562 0.5489599769169178 0.4068377261256815
1418215624 0.6342989876409685 0.2914337883115411
1421065686 0.7040983988418439 0.1561246655052343
1423915748 0.7115864754433399 -0.014117011871554388
1426765810 0.6426599508402585 -0.18891244977666888
1429615872 0.5039037432930903 -0.3631153651449086
1432465934 0.3161563096510875 -0.5052154262895688
1435315996 0.1013802990856044 -0.5965109823738847
1438166058 -0.12037203381363636 -0.6165178235541059
1441016120 -0.3226869155606195 -0.5905178739910814
1443866182 -0.4993070802937408 -0.5472866700369069
1446716244 -0.6259421934984921 -0.47625488328069165
1449566306 -0.7070437518151502 -0.38937655688953887
1452416368 -0.7605144043197579 -0.28681700065962445
1455266430 -0.7752145984343268 -0.18715410430654103
1458116492 -0.7657539513064846 -0.08602101658646494
1460966554 -0.7337494147840723 0.019573951947362198
1463816616 -0.6889578577850236 0.12968235000941955
1466666678 -0.6230656287269898 0.2552364603446157
1469516740 -0.5509481935852654 0.37526457479778397
1472366802 -0.471950479800113 0.5189940001790865
1475216864 -0.3992651809029034 0.6742822830726579
1478066926 -0.3344879440369464 0.8237771534639469
1480916988 -0.2639770292113526 0.9643640646449563
1483767050 -0.1850078545067144 1.1130560712110813
1486617112 -0.10438682303276096 1.2370559638944085
1489467174 0.018945101442647945 1.3087860872646464
1492317236 0.14386247677849615 1.374251579648233
1495167298 0.2696713053702476 1.3924857477883894
1498017360 0.4846719530683729 1.2684486111212554
1500867422 0.6916219093287005 1.0432688729933837
1503717484 0.861695093002471 0.7467231234102636
1506567546 0.9205375159442893 0.39022220106953903
1509417608 0.8678893938772881 0.02741154400462283
1512267670 0.721154398098196 -0.27661843958478183
1515117732 0.507135583641023 -0.4905116913884017
1517967794 0.311404238724688 -0.5907395430739999
1520817856 0.14412069908238925 -0.611800025148125
1523667918 0.004415046952650189 -0.5874402965334447
1526517980 -0.10016702074116185 -0.5172190036256272
1529368042 -0.1754715028651837 -0.4052194209725914
1532218104 -0.23927696552468744 -0.2731151624704932
1535068166 -0.28642173281673877 -0.138378290603041
1537918228 -0.320804328417606 -0.004927201716854225
1540768290 -0.3516924860724988 0.11724788263256651
1543618352 -0.3842869094687948 0.24051301266024191
1546468414 -0.3914643243906201 0.33925904738496376
1549318476 -0.41158609805260277 0.4343563408841903
1552168538 -0.4217163769180771 0.49722987869196417
1555018600 -0.42017473085622037 0.5546983458170951
1557868662 -0.4079593868767401 0.5953118400323119
1560718724 -0.3774347827914532 0.622490816352966
1563568786 -0.2167395041072114 0.6088267102752966
1566418848 -0.17572346441219888 0.5879786323429268
1569268910 -0.09857822758130587 0.5485159655183349
1572118972 -0.03472424398477254 0.49947629592117476
1574969034 0.03784334486990469 0.451140469419539
1577819096 0.11791242648069267 0.3601438585164704
1580669158 0.19363880911149708 0.297892723812005
1583519220 0.26763739138598364 0.23751936593091227
1586369282 0.31617277417006606 0.1649075407155914
1589219344 0.344402225414042 0.11437717818121579
1592069406 0.3764320087642871 0.0710439298497038
1594919468 0.3921206857495003 0.054751834806569116
1597769530 0.39161185038373025 0.04126117937572032
1600619592 0.44458853083534855 0.0626537617633761
1603469654 0.43452187145048876 0.10116389020073678
1606319716 0.42011189221957906 0.13932932792842503
1609169778 0.3988289572002335 0.17250920016774016
1612019840 0.39312743097878594 0.19909674568035618
1614869902 0.39395872867892706 0.216935634550716
1617719964 0.3959836724071032 0.22082345595988745
1620570026 0.39139023184999583 0.1934510862742132
1623420088 0.3846694937405504 0.14368832957745795
1626270150 0.37069799590778213 0.08148845072135677
1629120212 0.34050139746158536 0.01883251605264587
1631970274 0.298225453527685 -0.06263739056823689
1634820336 0.2615811624522013 -0.12124247517707779
1637670398 0.2116852664151 -0.18272970704659672
1640520460 0.15810949322873888 -0.20544002373130496
1643370522 0.11915545547172557 -0.22223890429579554
1646220584 0.08787625063556746 -0.20482546729645598
1649070646 0.05788828038555999 -0.17704414523529832
1651920708 0.027232881475956264 -0.12139613806736078
1654770770 0.007325640644691404 -0.0473207446331617
1657620832 -0.024188432111077997 0.030946356937880306
1660470894 -0.04583301919723246 0.12142849326045527
1663320956 -0.06458957525535272 0.21243696525752362
1666171018 -0.10593673396589852 0.30552822359456344
1669021080 -0.10527522030721713 0.4007266331546862
1671871142 -0.10537553290499384 0.49137202129529717
1674721204 -0.09995426904840594 0.5762167371608949
1677571266 -0.06680368332505401 0.666260230453265
1680421328 -0.0139818893956346 0.7535135503062075
1683271390 0.0722532399959918 0.8070403562232794
1686121452 0.18835066013442275 0.8499000115655516
1688971514 0.340213690638996 0.8627492441771341
1691821576 0.5299645891105689 0.847319908638491
1694671638 0.7519414581591997 0.7741887548739892
1697521700 0.9230476475043324 0.6449010862933696
1700371762 1.0519614459779274 0.46620733157696326
1703221824 1.168007600789565 0.236048907691489
1706071886 1.1612868641626548 0.00701464191535102
1708921948 1.0740161762359552 -0.173078540606682
1711772010 0.9649198911928556 -0.3506861647418204
1714622072 0.8369312981108443 -0.4492786291301528
1717472134 0.6742823424338334 -0.5269994953987867
1720322196 0.5180796472182453 -0.5591869504642482
1723172258 0.3497505598221846 -0.5717257077799718
1726022320 0.19856792208622004 -0.5431218496401294
1728872382 0.058718929017032136 -0.49589348721461457
1731722444 -0.05437537883071585 -0.43915550204776777
1734572506 -0.1527982501043534 -0.35831154677865235
1737422568 -0.23043998994258078 -0.2906653367899912
1740272630 -0.29093746206410614 -0.189917009229799
1743122692 -0.33055016658205444 -0.08773133549824252
1745972754 -0.3421434231364631 0.02248996997233596
1748822816 -0.3275309264283355 0.14427091800082492
1751672878 -0.29743421256504693 0.29127311595577243
1754522940 -0.22415968199755443 0.44625147735984483
1757373002 -0.09787180491971602 0.6104294449100856
1760223064 0.0810026349828904 0.7611714681326673
1763073126 0.31187044775064243 0.8828676451116076
1765923188 0.5832306248218849 0.9291071859663947
1768773250 0.8657597185600004 0.9107229454027171
1771623312 1.1528107447052045 0.7888562965995587
1774473374 1.31096046156184 0.5795602491916989
1777323436 1.3937333311517521 0.2869673752351292
1780173498 1.3852686892968704 -0.02555228158699981
1783023560 1.2714282859847816 -0.2532456499563474
1785873622 1.0847038734765857 -0.4114930628401786
1788723684 0.8924333419355194 -0.5591784116063727
1791573746 0.6955640758059198 -0.6382093168787325
1794423808 0.5154624238323343 -0.7083852148175918
1797273870 0.3630279231514306 -0.7415870878347065
1800123932 0.23478012202003043 -0.7537223730275997
1802973994 0.12520709620322493 -0.7422547975400499
1805824056 0.035760626556566186 -0.7196789507725159
1808674118 -0.05370165420168085 -0.6677751139659549
1811524180 -0.10576906606911374 -0.6108335120795771
1814374242 -0.1487725980912628 -0.5328339789356744
1817224304 -0.18492989393956968 -0.4468509773803612
1820074366 -0.19723845305555118 -0.34614846830354434
