# HZ S RI R 50
700000000 -0.07739031802177017 -0.5791978831294927
702850062 -0.18842826825280964 -0.5604862700234748
705700124 -0.2865200819847906 -0.5234049744392788
708550186 -0.37655080121303075 -0.4725130171402819
711400248 -0.44848818941572194 -0.40303984620045297
714250310 -0.5068805472099716 -0.31976586523833483
717100372 -0.5483778776355391 -0.22139419653539735
719950434 -0.5671927914465843 -0.11231093588900237
722800496 -0.559915918823446 0.0037383834114914204
725650558 -0.5271974249247505 0.11971843097448256
728500620 -0.4682527232921788 0.23401269646689732
731350682 -0.38410090328942403 0.3392365549065997
734200744 -0.2816454762448353 0.4236638645240435
737050806 -0.1666628371305716 0.48564032819007985
739900868 -0.039736941835018594 0.5239064644107565
742750930 0.07774114540658984 0.5291553262638015
745600992 0.19811124243094996 0.5132154164480925
748451054 0.3072439545029998 0.4751567973871428
751301116 0.402777781962981 0.41460169802708513
754151178 0.48115097771180715 0.33617827045429005
757001240 0.5381634579400129 0.24657154777520188
759851302 0.5767063492473923 0.1417220857761318
762701364 0.5916312378458729 0.03192860172683986
765551426 0.5867623741528892 -0.07838795389108447
768401488 0.5603386441588545 -0.18604092115278234
771251550 0.5157019203338971 -0.2859885921638427
774101612 0.45301572740877766 -0.3775100230422652
776951674 0.3791729470155087 -0.4538805728020365
779801736 0.29304044757417735 -0.5115453897652169
782651798 0.19696860417419013 -0.5536795106647622
785501860 0.09720775544650023 -0.5764891894678539
788351922 -0.00690796462618735 -0.5793848203062906
791201984 -0.11125398505426283 -0.5558731968928672
794052046 -0.2075820116613541 -0.5101346271724561
796902108 -0.29783744445677834 -0.4435067967666142
799752170 -0.3719919304811063 -0.35820698005965596
802602232 -0.4278410269056199 -0.2547499368547963
805452294 -0.455061235829126 -0.14699102915322804
808302356 -0.46363286483295535 -0.03292833300825328
811152418 -0.4502565449259642 0.07628760423343503
814002480 -0.41351864202421806 0.17727177436350142
816852542 -0.36159057713356146 0.2668637226747685
819702604 -0.2927160831458791 0.34133820256744507
822552666 -0.2155761525655702 0.39259330514328056
825402728 -0.1281359911059631 0.42966435387525503
828252790 -0.03944008770774298 0.4463050517339044
831102852 0.054347904812601516 0.44121560181279573
833952914 0.1437360540578421 0.41494795397964707
836802976 0.22630093107493984 0.3718121109607845
839653038 0.2976825833746188 0.3109836395408584
842503100 0.3558602371011986 0.23830135301186486
845353162 0.4009175658760315 0.15175250198609372
848203224 0.4291251583644546 0.06196926658058115
851053286 0.4394353110630713 -0.028996983084981016
853903348 0.43432283458896553 -0.12180312631105386
856753410 0.4108661775651999 -0.20546137754883995
859603472 0.3729307789146195 -0.28146482901811787
862453534 0.3226045853572321 -0.3466808795822806
865303596 0.2602796083992938 -0.39570990006203743
868153658 0.18881856384084972 -0.43027662465280414
871003720 0.11335985316282747 -0.4497057534058262
873853782 0.03468410539029808 -0.45017951041781124
876703844 -0.040298736111684 -0.43132589459848414
879553906 -0.10863040777487985 -0.39947119615348897
882403968 -0.17022271698458782 -0.3550374472965432
885254030 -0.22096002718179783 -0.297896120629556
888104092 -0.2623486772051645 -0.23534482865509102
890954154 -0.28960478408450374 -0.1663796786714332
893804216 -0.30612008690169 -0.09556939007852142
896654278 -0.30762473578408345 -0.02474216335190987
899504340 -0.29916042354501604 0.041680393156847274
902354402 -0.27892903239144407 0.10378866292993631
905204464 -0.24447808657548886 0.15644500754430046
908054526 -0.2038742790184084 0.1982439380342881
910904588 -0.1543472052934249 0.23252042560484726
913754650 -0.09817261055489566 0.2508352617389417
916604712 -0.03862411460947698 0.2556485419779283
919454774 0.01860535795290306 0.24846271649798102
922304836 0.07534453916451578 0.22700985662453904
925154898 0.12725480295138122 0.1955427986217883
928004960 0.17342628828793985 0.15471233548084992
930855022 0.2086884587783452 0.1086568717124821
933705084 0.23352679955557798 0.05912409579416913
936555146 0.2485532824740515 0.009474520904039354
939405208 0.2540234371710128 -0.039408813663050726
942255270 0.24947796455106988 -0.08401586421423408
945105332 0.2392926739514879 -0.12467248870155492
947955394 0.22018831754338866 -0.15965001711319834
950805456 0.19270923315242866 -0.18602556002076992
953655518 0.1619416663127461 -0.20577016835470388
956505580 0.1283927757538366 -0.2202683148103111
959355642 0.09502178399615804 -0.22763930963225906
962205704 0.05752298671160142 -0.23379139925424164
965055766 0.017149031249547832 -0.23177874608405755
967905828 -0.018201783959924722 -0.22666688248203462
970755890 -0.053120491748910516 -0.21788324870204262
973605952 -0.0836044426455466 -0.20672796679003103
976456014 -0.11291796872278426 -0.1908606702248194
979306076 -0.13747118347773984 -0.1743935656956652
982156138 -0.1572587675410371 -0.15458422429917915
985006200 -0.17001571967339632 -0.13563108888430214
987856262 -0.1764182980911728 -0.10868236667995192
990706324 -0.17643016120627725 -0.08073658353551637
993556386 -0.17415575253141044 -0.05986423790422985
996406448 -0.1660349389378915 -0.0364052990843768
999256510 -0.15515946085630927 -0.012485853889788885
1002106572 -0.13618152030818595 0.01181977650025293
1004956634 -0.11955114077105077 0.038311251135923825
1007806696 -0.09899851157124609 0.06148488069737538
1010656758 -0.07907471884582201 0.08369843491595587
1013506820 -0.05547393612563383 0.10120617334956157
1016356882 -0.02855509525880186 0.12108945030297934
1019206944 -0.0009663744457780931 0.13624203138139143
1022057006 0.029006276797473026 0.14604633183095062
1024907068 0.05647563690033392 0.15082977530536093
1027757130 0.08716285901452529 0.1457089093336299
1030607192 0.11791345109024046 0.13388676188086637
1033457254 0.1418447119392166 0.11396564170003466
1036307316 0.1676733694596742 0.08864124733557939
1039157378 0.18654863036253913 0.05088383638729404
1042007440 0.19771438006071246 0.009816605964068598
1044857502 0.19962693883325675 -0.03460957713687365
1047707564 0.19388244319005102 -0.0810656549867058
1050557626 0.1783415546776138 -0.1314731996498678
1053407688 0.15848888019433222 -0.17721049390620489
1056257750 0.12678086056217244 -0.2175774748540116
1059107812 0.09012692715930294 -0.2503148569285529
1061957874 0.04400100122748333 -0.2778354679439556
1064807936 -0.0036768088303470755 -0.29762103595727657
1067657998 -0.05441836243729105 -0.30491266731979255
1070508060 -0.10730277883913661 -0.303723208031573
1073358122 -0.16126655095591286 -0.2880362771131843
1076208184 -0.21106937061279657 -0.26343057948902604
1079058246 -0.2563349258012221 -0.23182542807746534
1081908308 -0.29221967611695027 -0.18901289211473052
1084758370 -0.32307543477607636 -0.13417264316518443
1087608432 -0.34321645808780804 -0.07500697418670664
1090458494 -0.34503688783693437 -0.012755490854767728
1093308556 -0.33464578538617795 0.055787320514857304
1096158618 -0.3093665010598926 0.12431130935725115
1099008680 -0.272576066149974 0.18366292729594633
1101858742 -0.21991272492860547 0.22957774389040445
1104708804 -0.15574004343979878 0.27587443922079713
1107558866 -0.08781768933888129 0.3036929642407117
1110408928 -0.008209951440130236 0.31448439091622504
1113258990 0.06491580799324692 0.3063776401901182
1116109052 0.12983774113747207 0.2845090146887117
1118959114 0.194828947877501 0.24371490855406078
1121809176 0.24884300437915927 0.19437675452405356
1124659238 0.28755383614604846 0.1341188035093402
1127509300 0.30727523133643125 0.0664884974473949
1130359362 0.3165643197767562 -0.010382025180182107
1133209424 0.3112946010089337 -0.08060755389132496
1136059486 0.2897436394744196 -0.15162607622880736
1138909548 0.2559767876374649 -0.2168279429245835
1141759610 0.2075467312837982 -0.2767942087514593
1144609672 0.1515171657287836 -0.32700682967279215
1147459734 0.091393151268198 -0.3608711984402015
1150309796 0.024690224114157226 -0.38116816213630916
1153159858 -0.047757099815909455 -0.38664803184910485
1156009920 -0.11311649626894102 -0.3788563498785609
1158859982 -0.17623947355079195 -0.3472094951722672
1161710044 -0.2331167999222084 -0.3044390408592509
1164560106 -0.28383702706581715 -0.2479766443885816
1167410168 -0.31968623253820283 -0.18129196090785007
1170260230 -0.3492890605167475 -0.10260837934205609
1173110292 -0.35704191159695614 -0.020710436767188246
1175960354 -0.34919020839798426 0.06631327829934147
1178810416 -0.32498770814784655 0.14717796273717285
1181660478 -0.2915207411752136 0.21349921487468912
1184510540 -0.24662777354681023 0.2695195672395769
1187360602 -0.19207455939264642 0.31172415662780495
1190210664 -0.1333469062300448 0.33928571616804315
1193060726 -0.07035939613870291 0.34374775020010745
1195910788 -0.008667992147488165 0.3304677482633773
1198760850 0.04390451900986485 0.3020606375617514
1201610912 0.0986183181355909 0.2588254858235668
1204460974 0.14210401674424264 0.20710626213485736
1207311036 0.1789527832563482 0.14375685124395027
1210161098 0.20450295894377638 0.0775012496924712
1213011160 0.2186703048199607 0.011501413718922325
1215861222 0.22403724639318054 -0.05289790686112943
1218711284 0.2211044273575738 -0.11059060546373063
1221561346 0.2085806462665213 -0.16066977243184166
1224411408 0.18661740518805855 -0.2009016777775095
1227261470 0.15869339985722972 -0.2313340889378321
1230111532 0.12437788435238303 -0.24666440525880537
1232961594 0.07939684464442767 -0.2506519047370343
1235811656 0.03575584617517245 -0.24334421260771638
1238661718 -0.014548943959073777 -0.22197713834544233
1241511780 -0.0663926085520561 -0.19126924695879302
1244361842 -0.10902866527544704 -0.1585536049155364
1247211904 -0.14910434786529053 -0.1167991157917787
1250061966 -0.17929019175601668 -0.07607357309579935
1252912028 -0.20199293944489793 -0.033761582186341045
1255762090 -0.21694132708138572 0.0021554053907211256
1258612152 -0.2275372829822892 0.036090322614699154
1261462214 -0.22687648676086333 0.06205732501526249
1264312276 -0.21445476536915264 0.07769991428349958
1267162338 -0.19603698501287428 0.08446897727820403
1270012400 -0.17479978454247053 0.08997929243550391
1272862462 -0.14547377558437086 0.08977621182668863
1275712524 -0.10532222447021237 0.09237019376602963
1278562586 -0.07736599413508921 0.08339055026583972
1281412648 -0.05160367804135645 0.0782767062313782
1284262710 -0.026603840556930006 0.07423859881272495
1287112772 -0.0035576591519098297 0.07318380231139023
1289962834 0.012446723574020319 0.07225649905994289
1292812896 0.029240297280611244 0.07873751904472441
1295662958 0.03821209259734056 0.08548861346560004
1298513020 0.044670873281078494 0.0947221518943214
1301363082 0.04696478590966392 0.10667179797701339
1304213144 0.048488917414154044 0.11772806002134696
1307063206 0.046211161356646054 0.1272915150249877
1309913268 0.04324589110271575 0.12995209816953443
1312763330 0.039107072582177015 0.12376107570342271
1315613392 0.03342459104040171 0.11631773986418886
1318463454 0.03171574794948723 0.1027323757164685
1321313516 0.0346875239642264 0.07871292238417292
1324163578 0.03514136579710715 0.05288095320920774
1327013640 0.03846714415800586 0.02072035639573605
1329863702 0.04157495217298068 -0.012694468217794309
1332713764 0.044006778204576436 -0.05022621791371671
1335563826 0.04712868784751639 -0.08856531434256192
1338413888 0.046501097819541315 -0.12092480707943498
1341263950 0.04817574826931048 -0.1512227650944186
1344114012 0.04015543052907951 -0.1712702159405746
1346964074 0.0286417584225978 -0.18332376694436833
1349814136 0.011186313779876516 -0.18737168709359428
1352664198 -0.014307786481357549 -0.17766274207899452
1355514260 -0.047932456209143506 -0.1657655404373533
1358364322 -0.08525083472233745 -0.13967925462203815
1361214384 -0.12158272559107117 -0.10855731699279116
1364064446 -0.1574058997433943 -0.06482349139366272
1366914508 -0.19826318864165562 -0.020604879080003184
1369764570 -0.2237490970716713 0.034953871276316245
1372614632 -0.24961233964282817 0.08322882906489273
1375464694 -0.2593266526148911 0.13433928846561358
1378314756 -0.2616028634827868 0.18498742904379303
1381164818 -0.24644985627866725 0.2263203737198166
1384014880 -0.21531450802181842 0.2575743217516163
1386864942 -0.17134681944893893 0.2791921294492691
1389715004 -0.1264446987294785 0.2881062738098105
1392565066 -0.06120737426932189 0.29111425714041833
1395415128 0.006750225189524948 0.2841876871484118
1398265190 0.08382832453398509 0.26822189487468107
1401115252 0.15285242601338125 0.24813235757973973
1403965314 0.21307474218603822 0.21919301800064533
1406815376 0.26793840111985423 0.1787385758978339
1409665438 0.31181850569645514 0.13895158881807956
1412515500 0.34034710970715565 0.10244875077910576
1415365562 0.358585281661617 0.05790376057452145
1418215624 0.3616234739875357 0.012010826517202795
1421065686 0.3407842360456867 -0.024990566158901523
1423915748 0.31007288094909613 -0.07010226824425182
1426765810 0.25743364746735875 -0.10346807180377013
1429615872 0.19125274912882914 -0.13527002074680586
1432465934 0.11475630523699189 -0.1676025992332525
1435315996 0.03672756473331286 -0.19123709263425723
1438166058 -0.04540716693232184 -0.20056798313717994
1441016120 -0.12479497292328717 -0.20147212335089795
1443866182 -0.19926739001484403 -0.18802295726233828
1446716244 -0.2545965266205003 -0.1649518114264014
1449566306 -0.3034039818861467 -0.13014195898266454
1452416368 -0.3265724100897535 -0.0839773423591457
1455266430 -0.34168310380324096 -0.02102326418644473
1458116492 -0.3288075895397466 0.03969864582693278
1460966554 -0.30443500231113063 0.10189559240562078
1463816616 -0.2596253245075797 0.17150924692332675
1466666678 -0.20640230062628306 0.22966725342656705
1469516740 -0.14227235269774888 0.2848701345839686
1472366802 -0.0801218372377633 0.3306505249626747
1475216864 -0.009036079427121231 0.3604345670626937
1478066926 0.0512336753216434 0.383201500388518
1480916988 0.10877163235267011 0.3934377231303743
1483767050 0.15887270097704928 0.3913188785450735
1486617112 0.19585743962218727 0.37056889170972057
1489467174 0.22494028779677827 0.3416339210138966
1492317236 0.23911512832639797 0.29882553309466164
1495167298 0.2472250245728657 0.24306961684827338
1498017360 0.2487968589736042 0.17683818458445355
1500867422 0.23880533732100404 0.10302828122232785
1503717484 0.22490960163537507 0.028906880576535024
1506567546 0.20266836858841009 -0.04185126432270417
1509417608 0.1748552774472252 -0.10409592101145837
1512267670 0.14393847114631889 -0.16193240231580072
1515117732 0.10933617726468091 -0.20312600273029177
1517967794 0.06803407130893163 -0.227361459690746
1520817856 0.03273893346328355 -0.24009450265896265
1523667918 -0.0017619193665442236 -0.2340011398162355
1526517980 -0.03327255838592107 -0.20992746761192338
1529368042 -0.06662325179658825 -0.16928343188029857
1532218104 -0.08224708175112769 -0.11475006336390087
1535068166 -0.10152296615954928 -0.055907767516050706
1537918228 -0.11072923527954995 0.004224490886835372
1540768290 -0.11947375234400007 0.07141209043259016
1543618352 -0.12393462395987816 0.12805524067243798
1546468414 -0.1187757510690854 0.17491510834214952
1549318476 -0.1207545968080359 0.21157951194416252
1552168538 -0.11372410728610881 0.23502376174614714
1555018600 -0.10070372906292205 0.2496921567999127
1557868662 -0.08060688217731926 0.2526416254562565
1560718724 -0.0618395139313478 0.24905867206860385
1563568786 -0.03682580461445105 0.23055599252459008
1566418848 -0.013966015244499655 0.20724826737303928
1569268910 0.013683742936934236 0.18068819543312137
1572118972 0.04180966714069977 0.16285087759362518
1574969034 0.07246662726727499 0.13394123974766983
1577819096 0.10265685005621657 0.10791373724627744
1580669158 0.1296291383055882 0.08280599555678891
1583519220 0.15426051259900708 0.06752325288857683
1586369282 0.171235965234397 0.053506324165496395
1589219344 0.1811721184950082 0.04246038765048356
1592069406 0.18952772049895864 0.042784697644526734
1594919468 0.19317329752243312 0.040948813989498956
1597769530 0.18354932475577268 0.04268790313140341
1600619592 0.17528261225707253 0.05475236811481331
1603469654 0.15823329891909255 0.06743840706605483
1606319716 0.14323968982185847 0.0739108534031538
1609169778 0.13147609940140895 0.08654218089347415
1612019840 0.11001513938913735 0.08944335901354347
1614869902 0.10486712908344678 0.08723306628629639
1617719964 0.0991563852685314 0.07838057053657281
1620570026 0.0936828641842481 0.058590333051745415
1623420088 0.08892628766265047 0.033512415502833286
1626270150 0.08699879611805568 0.010974375511178636
1629120212 0.08886448097797893 -0.01711507782137556
1631970274 0.09169812086180819 -0.04336105645207131
1634820336 0.09313232604106221 -0.06701950720718948
1637670398 0.09105923941426096 -0.08888458362173021
1640520460 0.08572758986244423 -0.10045056298404167
1643370522 0.08076676513937531 -0.10618846711466126
1646220584 0.07202112537402179 -0.09926527366987035
1649070646 0.05782670457594612 -0.08628048913554665
1651920708 0.04339797014495698 -0.06711003262687269
1654770770 0.027732534414010208 -0.03490466895083208
1657620832 0.015058909798618273 -0.004138179075281695
1660470894 0.0013606451463763368 0.029629461249183
1663320956 -0.01318257824651898 0.06601774537987745
1666171018 -0.022314338118610087 0.10397547807643898
1669021080 -0.028725893498219822 0.1391708417985074
1671871142 -0.0303265227490015 0.17271398022970713
1674721204 -0.025676385961983038 0.19749900064158182
1677571266 -0.011193907192870743 0.2147613202384401
1680421328 0.014196742299543558 0.22505897259578148
1683271390 0.047747266377435205 0.2346095284286983
1686121452 0.08525506299686374 0.230958963021492
1688971514 0.13440021162837434 0.2235717556396951
1691821576 0.17747377284179877 0.20308507065113537
1694671638 0.22635369565980823 0.18441849808799396
1697521700 0.2726845141550089 0.15814145046675618
1700371762 0.30908581461570334 0.12183791425819804
1703221824 0.3407321453664329 0.08361006667757559
1706071886 0.35924061019334896 0.043218576007067196
1708921948 0.36766868244528544 -0.004365380582057365
1711772010 0.3657496167289888 -0.04039800530584191
1714622072 0.3466892534667071 -0.07802681558947337
1717472134 0.31696603396324313 -0.11588361567169131
1720322196 0.27895062866344944 -0.14892259928414464
1723172258 0.23413197677797443 -0.18033589587456578
1726022320 0.17299110724112038 -0.20212583055181974
1728872382 0.11569218883275 -0.21187124504031643
1731722444 0.05437549053466278 -0.22383673323573117
1734572506 -0.003958017389347943 -0.21478290105556683
1737422568 -0.056062474880972685 -0.20227276284845128
1740272630 -0.09478819672190537 -0.17557210939420387
1743122692 -0.1291027719454078 -0.13648164304887428
1745972754 -0.1441355232361538 -0.08363607364052116
1748822816 -0.1450633389007588 -0.025160532022129926
1751672878 -0.13079497403774418 0.03534788425654767
1754522940 -0.10520692798050327 0.10068338654830052
1757373002 -0.06683704419622748 0.16299193946604895
1760223064 -0.012893487543955466 0.21829981736866008
1763073126 0.0402922360250936 0.2672413882314243
1765923188 0.10212327704027042 0.30075781008803826
1768773250 0.16696729005584945 0.31804327314523895
1771623312 0.22354359679778293 0.31656803725027555
1774473374 0.2789161251121154 0.3003693705321607
1777323436 0.32336648732821704 0.26990346755441447
1780173498 0.3621917675607683 0.2258389587189417
1783023560 0.3881145478862826 0.17602536565209295
1785873622 0.40836379059883715 0.10809098433777378
1788723684 0.41480333242255557 0.0367706313335005
1791573746 0.4138403129318828 -0.042425368534491685
1794423808 0.40253910637797213 -0.11194185148980493
1797273870 0.3842977694124909 -0.18229655479640083
1800123932 0.361020449455517 -0.24690094847493768
1802973994 0.31522923252189594 -0.29594975875729607
1805824056 0.266766975655194 -0.3227336676780245
1808674118 0.21891980880821646 -0.3349796151108844
