# HZ S RI R 50
700000000 0.060411850537733805 -0.6452856132188621
702850062 -0.06463861648718823 -0.6563431762027486
705700124 -0.18552089737924546 -0.6481904658825542
708550186 -0.3000515550330642 -0.622542188085443
711400248 -0.39995458487092295 -0.57643025466251
714250310 -0.488473748508367 -0.512316570668394
717100372 -0.5647287301745338 -0.4242409825775967
719950434 -0.6183506750293501 -0.31257419967056954
722800496 -0.6496451201972123 -0.18501947002956398
725650558 -0.6524205479987253 -0.04110358536070516
728500620 -0.6243264370497229 0.10957556543716948
731350682 -0.5726841148970563 0.21903177472703628
734200744 -0.4916876339882099 0.3625427976653261
737050806 -0.3819598903746282 0.4864239591035713
739900868 -0.252382862468885 0.5832660937023706
742750930 -0.10797492982490157 0.6473673815352287
745600992 0.037132142253811576 0.6772810873653932
748451054 0.18233282506713536 0.6711214576002292
751301116 0.3183673360562019 0.6311933805830736
754151178 0.43674165963062234 0.560915964849082
757001240 0.5337280471632501 0.46313140986191104
759851302 0.6060889496874768 0.3454365132889629
762701364 0.6529126636425565 0.21413356021232252
765551426 0.6754312037430042 0.07522447712802219
768401488 0.67183139760607 -0.061443885121251755
771251550 0.6476132245522842 -0.1917197964578654
774101612 0.601738454912849 -0.31119533427474616
776951674 0.5418100815461098 -0.4174686430729139
779801736 0.46479390525905223 -0.5094289900790714
782651798 0.3780546513253869 -0.5818230889942965
785501860 0.277974068251129 -0.6347464682236008
788351922 0.1694016708026919 -0.6641155614877524
791201984 0.05436205467833665 -0.671166624390947
794052046 -0.06734314602648336 -0.6518341804907346
796902108 -0.18503793903204627 -0.6065595623859998
799752170 -0.29822972279112503 -0.5384288798056799
802602232 -0.39769934877296637 -0.44626044920045366
805452294 -0.4797819759343643 -0.3357699787096345
808302356 -0.5387755118314638 -0.21681078161774378
811152418 -0.5759091690229483 -0.0876854067724258
814002480 -0.5834584597708978 0.040802831190074496
816852542 -0.5669474417597083 0.16298117709822807
819702604 -0.5265303198183553 0.2761517399356475
822552666 -0.4584155477480693 0.37435836503540376
825402728 -0.36850289657277113 0.44768290017324297
828252790 -0.261223687055543 0.506818908379194
831102852 -0.14189593735671202 0.5356716920267051
833952914 -0.01198553477736865 0.5381703686218086
836802976 0.11255761310024806 0.5103661047090837
839653038 0.23027943138847656 0.4563679336065193
842503100 0.3356206682919495 0.3809022699361102
845353162 0.4186545115406745 0.2903615955423722
848203224 0.4842094620388309 0.18590802236210405
851053286 0.5230364770337562 0.08022514690943049
853903348 0.5437762758035197 -0.02447991799988562
856753410 0.5434551423191935 -0.12540775231084003
859603472 0.5201670623950561 -0.223169194594193
862453534 0.4794378697461636 -0.30794606593603896
865303596 0.4229076097851361 -0.383148506564076
868153658 0.3508211029525979 -0.4430681809357568
871003720 0.2690435334801041 -0.4849080448667893
873853782 0.1797612315670945 -0.5110453925399655
876703844 0.08927070570805534 -0.5213757979876998
879553906 -0.003708555090932276 -0.5108159318550938
882403968 -0.0898669430618096 -0.48675666456929906
885254030 -0.1656638152585183 -0.4471091519872356
888104092 -0.23638186169236333 -0.39112413022589576
890954154 -0.29501527356911017 -0.32666391450095594
893804216 -0.3389397586413623 -0.2530197810248153
896654278 -0.3692549009999351 -0.1682987239163318
899504340 -0.3831214721628978 -0.08327479808641226
902354402 -0.3797055307213995 0.001332134234886388
905204464 -0.36034649504860794 0.08374520778957663
908054526 -0.32462484904526356 0.15954841162691166
910904588 -0.27619884388740057 0.22564493906906696
913754650 -0.21768061746225303 0.2781263160624243
916604712 -0.14918095472954201 0.314814917628837
919454774 -0.07157614505538892 0.3340099358417758
922304836 0.0022855353486451215 0.33501664448619844
925154898 0.07301198217328247 0.31799127045050557
928004960 0.13888988413961267 0.289273454532606
930855022 0.19660023434874993 0.24317071431020115
933705084 0.24159756999505852 0.1896831510795327
936555146 0.2761216109687231 0.12976683950054624
939405208 0.2971596632853024 0.06607679510950225
942255270 0.30586044682348595 0.0032223468284543954
945105332 0.3034629746280532 -0.055872315954367625
947955394 0.2929119954646573 -0.11064201390865118
950805456 0.2690713918246293 -0.16042408975925512
953655518 0.24069767521242558 -0.20006141128386634
956505580 0.2080274936913866 -0.2359675223965932
959355642 0.17272533685677335 -0.26132276700393575
962205704 0.12943460478526744 -0.28352608762563797
965055766 0.08516155675825456 -0.3007064971875957
967905828 0.039473998960177115 -0.3104651251595822
970755890 -0.004038438266169575 -0.315727162475104
973605952 -0.048401146690782076 -0.31441925662751213
976456014 -0.08843531895862863 -0.308522821872262
979306076 -0.12631422289612695 -0.2979524337400271
982156138 -0.16009219914232256 -0.2828100233353646
985006200 -0.18660157055065602 -0.26201989334766346
987856262 -0.20943573684977643 -0.24444198434986017
990706324 -0.22274226596596133 -0.21854420094477267
993556386 -0.23210531461843067 -0.18613450152419922
996406448 -0.23264526076662906 -0.15483533231637592
999256510 -0.22700792089032595 -0.12279329082804807
1002106572 -0.21595476035801384 -0.08608288600826162
1004956634 -0.19913761561016116 -0.045861061883007925
1007806696 -0.18033594822600438 -0.008783278414832743
1010656758 -0.15807228361224374 0.02813032683843569
1013506820 -0.13594538694096828 0.06127081476911461
1016356882 -0.10791033759887146 0.1018297353836293
1019206944 -0.07363463281440734 0.14408646635918174
1022057006 -0.03778516897017009 0.17732932152354344
1024907068 0.002345780629585178 0.2005747393531619
1027757130 0.04027316046539906 0.21664751696930598
1030607192 0.08540418587082871 0.22421133815262806
1033457254 0.13201712944032098 0.21824193746410625
1036307316 0.17943236503599427 0.1994530016754575
1039157378 0.2236443717250544 0.16682883605068907
1042007440 0.2597684909698064 0.12248385059483956
1044857502 0.28767086512403156 0.07088064027322073
1047707564 0.3082849417176718 0.010931453578718631
1050557626 0.31682624021848316 -0.059001021451023
1053407688 0.31444346997463724 -0.13214171245694561
1056257750 0.2966753820836226 -0.20450477849448317
1059107812 0.26737091214594183 -0.2751000475082913
1061957874 0.22292046321321438 -0.3374434655951155
1064807936 0.1681307821684775 -0.38703283977920727
1067657998 0.09297519560708842 -0.4321650620226956
1070508060 0.0156633022962052 -0.45148844421094525
1073358122 -0.07354539961766746 -0.4610547837616652
1076208184 -0.1674409512022285 -0.446403550916512
1079058246 -0.2528086381398771 -0.4197543117875552
1081908308 -0.33456538913275874 -0.37307839811212906
1084758370 -0.41204629527426545 -0.3119677832256619
1087608432 -0.47539273635617957 -0.2362375843337709
1090458494 -0.519153657375047 -0.14761611722751117
1093308556 -0.5410442302621371 -0.05877367816206826
1096158618 -0.5483224340391831 0.032120813519403185
1099008680 -0.5314935343002957 0.12269432860368752
1101858742 -0.4980837087686669 0.20640118864228862
1104708804 -0.4456539101294266 0.28001624789695945
1107558866 -0.3771783740923443 0.344379969383702
1110408928 -0.2932668527191425 0.3947984447065478
1113258990 -0.19820246541227174 0.42722055463706393
1116109052 -0.10000744926090117 0.4385425553138159
1118959114 0.0063161042256481385 0.43564383110730054
1121809176 0.11023447159891238 0.4146197078525298
1124659238 0.20876893525299206 0.3667235413447257
1127509300 0.2959542054588099 0.30995261411096914
1130359362 0.38093419103705844 0.22282098910054457
1133209424 0.4450108800947759 0.12202260190536249
1136059486 0.4894194795224525 0.00124112126054247
1138909548 0.503618365603235 -0.12390206733166541
1141759610 0.492182921372107 -0.25941884162877826
1144609672 0.43785636074938095 -0.40178161691509345
1147459734 0.35570123302001677 -0.5229688107667446
1150309796 0.25896280591042076 -0.6190079081088463
1153159858 0.13599890282610258 -0.6999712361277314
1156009920 0.0002798861804940917 -0.7446412425009143
1158859982 -0.13903688939120748 -0.7450724445218643
1161710044 -0.26810214466955945 -0.7140176398233197
1164560106 -0.3920366957662542 -0.6517192241420336
1167410168 -0.47995897205115656 -0.562026900605379
1170260230 -0.5473133336367669 -0.44959107307415325
1173110292 -0.591329034734284 -0.32634734812424365
1175960354 -0.6011942918538684 -0.1968717510685741
1178810416 -0.5900095594756882 -0.06488756593110397
1181660478 -0.5589143938186795 0.0535158606683834
1184510540 -0.5106595866802941 0.15749351600076966
1187360602 -0.44604192997422243 0.25433820334632495
1190210664 -0.3758958760823555 0.33139153982495856
1193060726 -0.295165751205141 0.3907201806567989
1195910788 -0.2045914506254147 0.42957822256113154
1198760850 -0.11701657923360077 0.44917666694113095
1201610912 -0.02332501283105996 0.4513696531677373
1204460974 0.07343292721076879 0.4329692138334499
1207311036 0.15976158355112402 0.3886546764854157
1210161098 0.24382228668907752 0.325800511132181
1213011160 0.311613444181039 0.2502423525366973
1215861222 0.37181991004547416 0.1641663990508614
1218711284 0.4123057695456792 0.06620137449947786
1221561346 0.428643444648221 -0.03994648275408845
1224411408 0.4225310470592733 -0.13436405523434608
1227261470 0.39830773554103577 -0.22486050048574371
1230111532 0.3470051231364703 -0.2939569851032264
1232961594 0.26998306086847934 -0.35231601611154445
1235811656 0.18826884404662136 -0.382739175535373
1238661718 0.08860323572722559 -0.3918810475841454
1241511780 -0.012674050883354866 -0.37148386761466595
1244361842 -0.10607091202367726 -0.3362296446009806
1247211904 -0.1951927416370259 -0.2793239239420794
1250061966 -0.26870443902408075 -0.22086177869146506
1252912028 -0.326897169395119 -0.15881290716870824
1255762090 -0.37369106541351677 -0.09552848812590149
1258612152 -0.41063910654718644 -0.03663013232532921
1261462214 -0.42779595248986396 0.013243502432154764
1264312276 -0.4374730281711618 0.05457133956135834
1267162338 -0.4240418913695095 0.08438094737613441
1270012400 -0.41028453368337753 0.10604099654579587
1272862462 -0.3879463264167145 0.11922756834837457
1275712524 -0.3367506998203844 0.1342361732737092
1278562586 -0.31228125131173706 0.13725038928629668
1281412648 -0.277463021015286 0.12759711366402002
1284262710 -0.2394039921511501 0.12086881309375064
1287112772 -0.21457806168400992 0.11227659245843132
1289962834 -0.18389476069231978 0.1110948509927931
1292812896 -0.16130384324043898 0.11048384561302899
1295662958 -0.1363471976627459 0.11519842765834568
1298513020 -0.11878921616726432 0.12159614869283554
1301363082 -0.10272632555378272 0.13736506381696764
1304213144 -0.09462238815211219 0.14202714718977372
1307063206 -0.08297946683353459 0.1544270524241596
1309913268 -0.07183678254355164 0.1635528364287421
1312763330 -0.056740545446384794 0.16621276682496625
1315613392 -0.04434923363418953 0.16173676549639762
1318463454 -0.033519757769761044 0.15154461935747687
1321313516 -0.011314828843689673 0.12879671085918806
1324163578 0.015292434391536247 0.10113399605051382
1327013640 0.04999189334152657 0.06178463801828514
1329863702 0.0722264817866674 0.011795723051454935
1332713764 0.09819790191812564 -0.043145021172066304
1335563826 0.1212577279705899 -0.11130898592609326
1338413888 0.14435658623349787 -0.18247742580489648
1341263950 0.1472421394972367 -0.24691123892382222
1344114012 0.1487009517012883 -0.310910328332462
1346964074 0.12364822393141156 -0.36214588712915213
1349814136 0.0855040540219011 -0.39969419744135987
1352664198 0.023091195508763672 -0.405346881676618
1355514260 -0.04788133691240513 -0.40745769777265906
1358364322 -0.14851765560639527 -0.3799719074534185
1361214384 -0.23095896103208458 -0.3345543436537764
1364064446 -0.3201855134703965 -0.2626083120822497
1366914508 -0.4054569864659539 -0.17900380488018205
1369764570 -0.47323024097925265 -0.08525570098015395
1372614632 -0.5225650940849833 -0.0021385943401724355
1375464694 -0.5562175703657914 0.08449727053122516
1378314756 -0.571779404681044 0.17364500416092976
1381164818 -0.5699659220623704 0.2487335518091465
1384014880 -0.5463120404124208 0.3175993842893956
1386864942 -0.5118160797121439 0.3774985959779116
1389715004 -0.45340015267294315 0.4307948557624982
1392565066 -0.38518079706486535 0.47412713699212317
1395415128 -0.30025908387197636 0.5084783691549335
1398265190 -0.19579023361775041 0.5434959612927505
1401115252 -0.07487703707469125 0.5583837626548879
1403965314 0.03691964781877459 0.5622689867893972
1406815376 0.16586933395462927 0.5447049554003297
1409665438 0.30176699515229566 0.507565606871854
1412515500 0.4303555265859917 0.45926561841914454
1415365562 0.5352698528870106 0.3945211367730361
1418215624 0.6215518732556358 0.2806650446166692
1421065686 0.6878109763358496 0.1494551829356816
1423915748 0.697553490862221 -0.020558690250039355
1426765810 0.6291191628061829 -0.1898059202173681
1429615872 0.49528954491302807 -0.3607569395132242
1432465934 0.312863639097152 -0.5054909237227824
1435315996 0.1046730563653998 -0.59650927890844
1438166058 -0.1136761639294108 -0.6182170522839985
1441016120 -0.31162574007263893 -0.5950028279344606
1443866182 -0.49554085633851774 -0.5397736634743765
1446716244 -0.6223116110198974 -0.4743124100380542
1449566306 -0.7036839174314422 -0.37911206180205753
1452416368 -0.7580785511977022 -0.2741906718622656
1455266430 -0.7674749084703193 -0.1761843323757004
1458116492 -0.7619186212856782 -0.07349237311975935
1460966554 -0.7292528020419262 0.02969919160398848
1463816616 -0.6795163928008093 0.1399728703724541
1466666678 -0.6124459484698027 0.26402055718653755
1469516740 -0.5428037501052559 0.3866924814530335
1472366802 -0.460192869509836 0.5260087589772913
1475216864 -0.3848721740460025 0.6783858384946719
1478066926 -0.30744247395562246 0.8216622957077095
1480916988 -0.2440448803419941 0.9542160075163246
1483767050 -0.1604590319581106 1.0976151729128183
1486617112 -0.06423645272034915 1.2231231167575687
1489467174 0.05949706909105526 1.2776375442440076
1492317236 0.18478885303606132 1.3443536405139358
1495167298 0.30649748881283323 1.3525809717909405
1498017360 0.507565474039758 1.2317695941357243
1500867422 0.6890320463085495 1.0075328344599377
1503717484 0.8418119778025561 0.7301824799074403
1506567546 0.9187553758872646 0.39086818004724005
1509417608 0.8540522497390983 0.029478602019071192
1512267670 0.718114786329326 -0.2539614016712846
1515117732 0.5151420597576304 -0.4645411393282181
1517967794 0.32455829956686727 -0.5686746035168673
1520817856 0.145168872541894 -0.6037646116024792
1523667918 0.006674561977298264 -0.5831522886122539
1526517980 -0.10006523688920343 -0.5138330059771011
1529368042 -0.1880694785701373 -0.4035517606010489
1532218104 -0.24865256509573647 -0.2745677911626888
1535068166 -0.2862933414266244 -0.13757462231656484
1537918228 -0.3235901519313773 -0.008193223384736511
1540768290 -0.3544927336498392 0.11923209204827354
1543618352 -0.37878920212385797 0.24095185685213855
1546468414 -0.39018915905532764 0.3395448670623653
1549318476 -0.39761367281314697 0.4473804333136339
1552168538 -0.4076047669750582 0.5017940845545231
1555018600 -0.40258908412140254 0.5597478450759087
1557868662 -0.3835676659739577 0.6081462345977151
1560718724 -0.3520988822605821 0.628356058605679
1563568786 -0.1931349023110217 0.6075826575305734
1566418848 -0.15888696143903852 0.5759267215920446
1569268910 -0.08004492754610742 0.5433796415238413
1572118972 -0.02298333926961333 0.4893872443489203
1574969034 0.04259188070380484 0.43484391507181097
1577819096 0.11582481755795476 0.3609848383862674
1580669158 0.18021798437689918 0.29163007997916673
1583519220 0.24788650795285888 0.23730423117361713
1586369282 0.29997917011151265 0.1649770410674459
1589219344 0.3282931901394445 0.11083926439650722
1592069406 0.37140440628928717 0.07237063953925958
1594919468 0.3829158001613464 0.05011982230325485
1597769530 0.38908231081876565 0.03699931786853449
1600619592 0.44532616601031955 0.051376200566824286
1603469654 0.4487148163931719 0.07520688384027018
1606319716 0.4293319067376858 0.11600925429767567
1609169778 0.4103836141453806 0.14740451031774165
1612019840 0.4077479298709456 0.17932136953624014
1614869902 0.4019079320334896 0.18982198922974478
1617719964 0.39900322239797303 0.1990840621653658
1620570026 0.37965717919775344 0.1797937875750971
1623420088 0.3849259884757391 0.14164826824576024
1626270150 0.3620405401639762 0.08144045986522143
1629120212 0.32586279688510783 0.024412798261513415
1631970274 0.29506661332832523 -0.04147982652728232
1634820336 0.25191269185397636 -0.10643261618084937
1637670398 0.2141103482697633 -0.16566406785975843
1640520460 0.1610452861817037 -0.1920686800245668
1643370522 0.11760969980318717 -0.21300478575878276
1646220584 0.08038698671202757 -0.20568310809516202
1649070646 0.044795848293591255 -0.16908139287457566
1651920708 0.022379438871568978 -0.12742771078470294
1654770770 0.0051313627292512935 -0.06481613407070269
1657620832 -0.027849540219063298 0.012140199488955748
1660470894 -0.05102169886260645 0.10272278608468609
1663320956 -0.06719295720808792 0.19664041044906985
1666171018 -0.09477595051186677 0.29461731089527643
1669021080 -0.09377221701385535 0.39109603497224915
1671871142 -0.09814279499895241 0.4846147348682476
1674721204 -0.08829066403149251 0.5773955315347449
1677571266 -0.04340308720651825 0.6729053895413198
1680421328 0.006827279000746949 0.7558888934280321
1683271390 0.10100952660925433 0.8148377810139992
1686121452 0.21360498427431382 0.8616598843177019
1688971514 0.3610519480022088 0.864421393898551
1691821576 0.5464620580457519 0.8307425328866062
1694671638 0.7475483220910275 0.7579127890244622
1697521700 0.9134113113661363 0.6391053417462054
1700371762 1.0457836737635933 0.43313501614542194
1703221824 1.102942820809255 0.21491202735722506
1706071886 1.0981064498104085 0.0007315502556167456
1708921948 1.026098872787608 -0.17710971891488292
1711772010 0.9222713344737189 -0.3285988835564248
1714622072 0.8006652355783511 -0.4532529632383898
1717472134 0.6499967365213819 -0.5130510230526553
1720322196 0.49543869686228165 -0.5548517711641644
1723172258 0.3447488005160462 -0.5738498067149594
1726022320 0.19628639545954388 -0.5454481140426022
1728872382 0.0624369571330654 -0.4931255166329085
1731722444 -0.04427753934019883 -0.4459655982643804
1734572506 -0.14286700616193423 -0.36608715561638916
1737422568 -0.22160485661981258 -0.2869499680316137
1740272630 -0.2751981558325979 -0.19088143534960328
1743122692 -0.3152506661774758 -0.08926424872228049
1745972754 -0.33366573516063097 0.03027720935613542
1748822816 -0.3219316809870386 0.14910116434586249
1751672878 -0.2976442868780824 0.30190597387860746
1754522940 -0.2204752429357829 0.4552123664470484
1757373002 -0.10202620456525054 0.613149639401644
1760223064 0.07535756671900165 0.7731880593904895
1763073126 0.30755437754673354 0.8984661668871903
1765923188 0.568323331902773 0.9202064373024447
1768773250 0.8449472267888783 0.8821327867879947
1771623312 1.1318930431992154 0.7644481536051804
1774473374 1.266506030190249 0.5151797047172755
1777323436 1.3371302813860793 0.23590066543199684
1780173498 1.3219291248971545 -0.05075339025422724
1783023560 1.2174040728404312 -0.2719891282350032
1785873622 1.0347073160368423 -0.41631213393710237
1788723684 0.8567742358387588 -0.5634257412001847
1791573746 0.6738960187078913 -0.6374336080419153
1794423808 0.5003221560273754 -0.705259288168901
1797273870 0.3559267149992315 -0.7302901404831191
1800123932 0.23496196266813218 -0.7349179044977259
1802973994 0.12481588034177207 -0.7276724313187648
1805824056 0.03272566473877693 -0.6985216255535638
1808674118 -0.04778011439871034 -0.6476201414315773
1811524180 -0.09654863263881892 -0.5920870400346462
1814374242 -0.1511424747905496 -0.517994317288601
1817224304 -0.18444600319682128 -0.43097843909001216
1820074366 -0.1944028645999419 -0.32890971925412915
