# HZ S RI R 50
700000000 0.0697317705023333 -0.6503060886614389
702850062 -0.05568784790749833 -0.6626388203120147
705700124 -0.17592035097596143 -0.6536015243774032
708550186 -0.29240867809390103 -0.6295349647950659
711400248 -0.39377008840273503 -0.5849048020691535
714250310 -0.48668903107580674 -0.5194520996604856
717100372 -0.5633763144910695 -0.4327111160268964
719950434 -0.6204835637058191 -0.31970838257670325
722800496 -0.6542816117448133 -0.1894823295089923
725650558 -0.6597407988448213 -0.04578028205350135
728500620 -0.6339023461188551 0.10638346020858391
731350682 -0.5831921103358824 0.21874610427325733
734200744 -0.5026269306941531 0.3623423452486283
737050806 -0.393102001014389 0.4882270286428983
739900868 -0.2663641006705576 0.5844216512435019
742750930 -0.11823619388159833 0.6495060470804929
745600992 0.029379404258869646 0.6791399362734204
748451054 0.17649023697940688 0.6742232388407551
751301116 0.31086218579540614 0.6341063050861917
754151178 0.43569784366910363 0.5639674774040868
757001240 0.5325484044997044 0.4686084143878445
759851302 0.6069098795156065 0.35016449709873454
762701364 0.657821069002864 0.21937892556394176
765551426 0.6811107187643259 0.08166940641042925
768401488 0.6809339643466772 -0.05485862340358322
771251550 0.6561582280457676 -0.18548741078414613
774101612 0.6128192731330272 -0.3030662338494592
776951674 0.5538459531571612 -0.4105940193910275
779801736 0.47616507865769403 -0.5044438409656535
782651798 0.38808628103135206 -0.5780029615300531
785501860 0.28646825257482883 -0.6336013345200956
788351922 0.17658917591009854 -0.6645385746345873
791201984 0.060019890615706735 -0.675187366429679
794052046 -0.06412240490514523 -0.6580240424870462
796902108 -0.1843676125309312 -0.6126985112003958
799752170 -0.2994602495240601 -0.5469816824328807
802602232 -0.3990433473163811 -0.45430586691240493
805452294 -0.4856189489907807 -0.3454734971314093
808302356 -0.5442158843771809 -0.2271921477562425
811152418 -0.5808686185255056 -0.09929172466293786
814002480 -0.5895690711559293 0.02821256409863867
816852542 -0.5724277245483645 0.15395663596569992
819702604 -0.5318659420424094 0.2676499822481141
822552666 -0.4634910856764066 0.3682248046061677
825402728 -0.3716158596877046 0.448234615197299
828252790 -0.26277714514516787 0.5079709744156261
831102852 -0.1448275301209823 0.537949652400064
833952914 -0.01401336844908752 0.5432390962775998
836802976 0.11069863139450054 0.5178703511070092
839653038 0.22711652221023101 0.465888160918248
842503100 0.3328224068414329 0.39287510681848625
845353162 0.41680818457335794 0.3018759523447749
848203224 0.4818198819765763 0.20005287124456117
851053286 0.5232077497472698 0.09260493496903134
853903348 0.5466541635947221 -0.014880995881775496
856753410 0.5446096034621273 -0.11711036537376296
859603472 0.5233611644154023 -0.21836675374545958
862453534 0.4836035246919311 -0.305696747310714
865303596 0.42866908841702445 -0.38286409686788053
868153658 0.3565911558607565 -0.44621164011683956
871003720 0.2760924217476838 -0.4912859823128426
873853782 0.18468681467051143 -0.5199304329351783
876703844 0.09468864794234524 -0.5302785740081645
879553906 0.004732793537164669 -0.5219433202302252
882403968 -0.0832473739891582 -0.4969817147260833
885254030 -0.1608711487655417 -0.45542085788938597
888104092 -0.2307626649896497 -0.400384159988874
890954154 -0.29179809962384035 -0.3315764611706937
893804216 -0.33583469691713147 -0.2566152398310953
896654278 -0.36737288803536183 -0.17024649314036885
899504340 -0.3835882915906682 -0.0828190704273598
902354402 -0.3812001158842511 0.0019134462566109838
905204464 -0.3626586441487173 0.0859123886382278
908054526 -0.3274029331090121 0.1631268122077852
910904588 -0.2824331625238482 0.22866782681588727
913754650 -0.22438974594479594 0.2803415706637929
916604712 -0.1571332448542889 0.31583892154706195
919454774 -0.08303139273284618 0.33548402161812396
922304836 -0.008301892405548145 0.3360741566125689
925154898 0.06386110106526117 0.32107871848846864
928004960 0.1302141971884008 0.2910647866043653
930855022 0.19162191359284036 0.24536588628326902
933705084 0.23850876254414594 0.1912073308456835
936555146 0.2759355038457515 0.13188308781180735
939405208 0.2986766297336727 0.0684271831822962
942255270 0.3110047404261047 0.005566236000786198
945105332 0.31200867736037563 -0.05389901575760666
947955394 0.30276545903930624 -0.10957831547363193
950805456 0.27942552608946297 -0.15815892592387484
953655518 0.25073008770112054 -0.19979756428096618
956505580 0.2179725581010945 -0.23436885004323915
959355642 0.1808064453721282 -0.2618474866413396
962205704 0.1350659543715246 -0.28296948583467163
965055766 0.08889359325374958 -0.30114434372462257
967905828 0.04260673700063894 -0.31067210297408776
970755890 -0.0034753310303051854 -0.3149586895064062
973605952 -0.048141466861395435 -0.3140825405871952
976456014 -0.09001414231646063 -0.3083266989592896
979306076 -0.1269200951486459 -0.2990957567073377
982156138 -0.16092193799340354 -0.2850882651316314
985006200 -0.19002610806400827 -0.26480414856733914
987856262 -0.21094582770674197 -0.2502960695450102
990706324 -0.2270177842872554 -0.2253124452440408
993556386 -0.2301023931630043 -0.192017209089542
996406448 -0.23384175501443333 -0.1605099465281456
999256510 -0.22690471609365628 -0.13012672876601353
1002106572 -0.21336920634238316 -0.09474570586683774
1004956634 -0.20007169922521353 -0.05343016911834028
1007806696 -0.18136439813101748 -0.014878191646958413
1010656758 -0.16022728276287804 0.02499532227723477
1013506820 -0.13918844265625296 0.06233371086516887
1016356882 -0.10936819876170409 0.10439612374627517
1019206944 -0.0773888042180864 0.14671019003534674
1022057006 -0.04126930697494491 0.1825263858002064
1024907068 -0.0030470809447521703 0.20712414503966384
1027757130 0.039127372189825205 0.22409379368878318
1030607192 0.08530827843876017 0.23096976836355707
1033457254 0.1332035181313504 0.22253352207138724
1036307316 0.17962127097061453 0.20429088444962462
1039157378 0.2227747641593017 0.17144920115854803
1042007440 0.26015423743842936 0.12438595569742585
1044857502 0.2878479786342496 0.07131961475590899
1047707564 0.30755346461077887 0.010451176038531768
1050557626 0.3169113636211997 -0.059715664431075774
1053407688 0.3161592734721523 -0.13327827830147612
1056257750 0.3007967714920662 -0.2042484948745951
1059107812 0.2718389954387815 -0.2731170791850875
1061957874 0.23130620286763334 -0.3338839507848014
1064807936 0.17192515465325017 -0.39250372217296786
1067657998 0.1048606689344588 -0.4303013674218928
1070508060 0.027215702132362067 -0.45634174331047467
1073358122 -0.06360785862515499 -0.4673936378105969
1076208184 -0.157400717107628 -0.45432002315950515
1079058246 -0.2481449886013556 -0.42649101437565234
1081908308 -0.33291621689059964 -0.3837377225540689
1084758370 -0.41306385558528647 -0.3240074537729795
1087608432 -0.4772742413004733 -0.245970863294539
1090458494 -0.5235339890133351 -0.1593426291755531
1093308556 -0.5496494405720822 -0.0715678718555095
1096158618 -0.5578260729903637 0.02592114082189095
1099008680 -0.5447611930691125 0.12045325267086288
1101858742 -0.5092289126797885 0.20578740940283535
1104708804 -0.4574894809134582 0.27848607559665967
1107558866 -0.3846507375862727 0.3454808349107761
1110408928 -0.29828593247018564 0.3979966102533236
1113258990 -0.20269312520267097 0.4304094102012796
1116109052 -0.1013981355656537 0.44309527137820265
1118959114 0.00552484846402988 0.44168863625937604
1121809176 0.1125426545879901 0.42414515468117914
1124659238 0.2099856153012664 0.3753561760264569
1127509300 0.29835082321361184 0.31544762329613646
1130359362 0.38357041680083076 0.23146637525145528
1133209424 0.44452087140851687 0.12811445069235394
1136059486 0.4871153682486718 0.010266264979459728
1138909548 0.5038002347460141 -0.11630180076667247
1141759610 0.49514460049150594 -0.2563464112117809
1144609672 0.442188156184136 -0.396656678324241
1147459734 0.3635698062155876 -0.5181832333276905
1150309796 0.26845351480165935 -0.6189098515402238
1153159858 0.14144768384415823 -0.7037896136673
1156009920 0.008344358735227887 -0.7532801715076206
1158859982 -0.12316848229482807 -0.7575075759925379
1161710044 -0.25796455314636746 -0.7355434214668073
1164560106 -0.37914967840567626 -0.6676274063680683
1167410168 -0.47393238172014296 -0.5811046931075328
1170260230 -0.5463447215909495 -0.4707531689415091
1173110292 -0.5916959073538961 -0.342311430839768
1175960354 -0.6096927758004298 -0.21114794119665997
1178810416 -0.5991590976229242 -0.07393831413709409
1181660478 -0.5689353662207391 0.04944493678091131
1184510540 -0.5212829370702582 0.1571983067018621
1187360602 -0.457517392084638 0.25693455508348134
1190210664 -0.3885850044162576 0.33772309725521577
1193060726 -0.30781134437975877 0.3990877263137248
1195910788 -0.21478852586548447 0.43637874123824
1198760850 -0.12260469523880968 0.4573382625576732
1201610912 -0.028379495381306692 0.46039166650187563
1204460974 0.06666108158855757 0.43764745046424475
1207311036 0.158485520664107 0.3908936689549244
1210161098 0.24238328882552476 0.32703935434288256
1213011160 0.3136361284999992 0.2512957899172387
1215861222 0.3712398510031797 0.16165813377425875
1218711284 0.4152991857821953 0.06265305721365194
1221561346 0.4309661019415207 -0.0419336530381479
1224411408 0.42772177234952113 -0.136599139877905
1227261470 0.4037540989231948 -0.2247019568166078
1230111532 0.3573949920488404 -0.2924646109200588
1232961594 0.2821619396176334 -0.3495170273580749
1235811656 0.20067186313934054 -0.3807160329441586
1238661718 0.09882214641301515 -0.38895444850501465
1241511780 -0.0014409973269742186 -0.3699751196850939
1244361842 -0.09664413054254926 -0.3349130530813494
1247211904 -0.18394402078880345 -0.28323600258154064
1250061966 -0.26348090140175456 -0.2253915433217245
1252912028 -0.3263000758122057 -0.16188098335054874
1255762090 -0.37965877382747476 -0.10249215795475887
1258612152 -0.4177226250826695 -0.04216168677082023
1261462214 -0.44056033703484593 0.007599013410213234
1264312276 -0.4523790833536099 0.04836597605052102
1267162338 -0.44713820680972943 0.08177345008994596
1270012400 -0.43138381984854113 0.10244578939371281
1272862462 -0.40336492465905144 0.1156563317087589
1275712524 -0.34805882563246143 0.13004204561915317
1278562586 -0.31815478888659504 0.13386000564610748
1281412648 -0.27954976271953114 0.1256032378273338
1284262710 -0.2403588863482536 0.1173466254256318
1287112772 -0.2084737460665667 0.10922941903448033
1289962834 -0.17755593292756763 0.10877688709090791
1292812896 -0.15569605197224926 0.10408306482989035
1295662958 -0.13247851559229448 0.11052995324142492
1298513020 -0.11939713604291192 0.11826566043131778
1301363082 -0.10686480988482151 0.13467018019614707
1304213144 -0.09707387505781255 0.13998651107054985
1307063206 -0.08818531872145247 0.16052242766751537
1309913268 -0.07764246573992718 0.17106301544524763
1312763330 -0.06706475913545062 0.1762921008516178
1315613392 -0.053670359508180825 0.17713989088263274
1318463454 -0.0444717080577003 0.16459968131900288
1321313516 -0.016727693312720573 0.1425354168336951
1324163578 0.010723428794149911 0.10802850720488814
1327013640 0.047192393989785024 0.06629578231060634
1329863702 0.07635517837734193 0.013253092194585243
1332713764 0.10062009298010952 -0.047646033368389976
1335563826 0.12756043294078825 -0.1218467364743159
1338413888 0.14660921347678496 -0.20168309495808148
1341263950 0.16061372890615533 -0.2618510289385137
1344114012 0.1469358095549442 -0.33035713283751
1346964074 0.1298274501505792 -0.377664210084487
1349814136 0.08920118132860064 -0.4146971962420774
1352664198 0.02714100669650846 -0.4104041221958295
1355514260 -0.04895043458030747 -0.40896189759489643
1358364322 -0.1447559095625826 -0.38067241943487423
1361214384 -0.2239249894888035 -0.32934492946025445
1364064446 -0.31189552236865997 -0.2577564416375931
1366914508 -0.4006232386808023 -0.172856600131071
1369764570 -0.4702507592304081 -0.08181603917099227
1372614632 -0.5242923855623519 -0.007301541253023394
1375464694 -0.5584297349965295 0.08691970461958412
1378314756 -0.5807179926654549 0.17098074149380524
1381164818 -0.583752710358744 0.24705991504653102
1384014880 -0.5565118527243992 0.3170862409609282
1386864942 -0.5293221322884684 0.3702542952114691
1389715004 -0.47357392355585193 0.42870984343579854
1392565066 -0.40409642448276295 0.47020213911585595
1395415128 -0.3188238383256221 0.5060440738304147
1398265190 -0.21431191598617166 0.5490077185205995
1401115252 -0.08773011895695494 0.5652779074954698
1403965314 0.03357711283660798 0.5707181406881988
1406815376 0.17061368688515113 0.5569764104612289
1409665438 0.30596614234201314 0.5289782410845888
1412515500 0.43278772120613046 0.48253570713765626
1415365562 0.5552249243432621 0.4052005200379875
1418215624 0.6353645623981178 0.3066501131720752
1421065686 0.6984466013732998 0.15296155627301591
1423915748 0.7075723662142016 -0.007587372295305712
1426765810 0.6449044335673828 -0.1928327538865192
1429615872 0.5048014754705167 -0.3552473273942092
1432465934 0.31312472227333804 -0.5049766626588753
1435315996 0.09898687412637265 -0.5993127537884265
1438166058 -0.12207860915872132 -0.6146744400608275
1441016120 -0.32162847908430925 -0.5921860736049094
1443866182 -0.4977696706268416 -0.5478043168403004
1446716244 -0.6258710150174978 -0.4784076139898493
1449566306 -0.7087912358540527 -0.3869820601600749
1452416368 -0.7613193996036683 -0.2875461535006267
1455266430 -0.7782099624320618 -0.1871728412563109
1458116492 -0.7689666122992193 -0.08521619588616777
1460966554 -0.7352510740419876 0.017423176272348278
1463816616 -0.6876166945213171 0.12901299313082573
1466666678 -0.6225358038653355 0.253359319782984
1469516740 -0.5517445605939391 0.3766068909774186
1472366802 -0.4739919778255867 0.5169463588098339
1475216864 -0.3999250624006628 0.6744630634976594
1478066926 -0.33088020207405 0.8239879243805821
1480916988 -0.2655398102224922 0.9614239116837853
1483767050 -0.18917152360312758 1.1123584995816262
1486617112 -0.10493759285096575 1.2344019928031653
1489467174 0.012533790039347034 1.306676048428352
1492317236 0.14184312729832554 1.3676707480699122
1495167298 0.2749667518767561 1.3881789608361677
1498017360 0.48491752160967805 1.2705733260402325
1500867422 0.685239681796287 1.0330624714629157
1503717484 0.8541404526800486 0.7461968211905134
1506567546 0.9226390503577725 0.3913175919914479
1509417608 0.861561021706173 0.022709155287778927
1512267670 0.7155153982716282 -0.28312583045948075
1515117732 0.5076389256390736 -0.4933015106926243
1517967794 0.31993967155474745 -0.5920499483668611
1520817856 0.14675859090296456 -0.609676748965193
1523667918 0.0069268925209428865 -0.5902940813447946
1526517980 -0.0992520086181144 -0.5174756227933016
1529368042 -0.17616189415986816 -0.4065120746655324
1532218104 -0.2397007552810147 -0.27830728518675735
1535068166 -0.2829094656976664 -0.13791216297188835
1537918228 -0.32258942407780333 -0.007337013595372306
1540768290 -0.3549738347326891 0.11768540557116229
1543618352 -0.3851523072323022 0.2366131438149052
1546468414 -0.39474959288749767 0.3404553191150673
1549318476 -0.41041712714699397 0.43671985212642833
1552168538 -0.4225499298402655 0.4970692985996756
1555018600 -0.41803649671895493 0.5562099341311881
1557868662 -0.41227698496608184 0.5957000430207275
1560718724 -0.3753509357313375 0.6279777272192598
1563568786 -0.22079676045911073 0.6082186073028685
1566418848 -0.17812145496072232 0.5868925060630641
1569268910 -0.09846196605053795 0.5555644711459632
1572118972 -0.03446814306915967 0.5019194522164276
1574969034 0.04025915528479599 0.448304500607301
1577819096 0.11538740450422856 0.3649709814514674
1580669158 0.19056035324942372 0.2978791919944993
1583519220 0.2625787264274944 0.24213291038637832
1586369282 0.31655901326400904 0.16956050186765945
1589219344 0.34821279409093536 0.11931249825788882
1592069406 0.3767554626635666 0.0747412412536761
1594919468 0.39163258347704893 0.0512955328232742
1597769530 0.3935146494444206 0.04063367758593283
1600619592 0.4423366423885001 0.06700619610114633
1603469654 0.43483730896563544 0.09820850227509877
1606319716 0.4080550775872964 0.13925776273716814
1609169778 0.39804055609511774 0.17697485372401464
1612019840 0.39396243304804834 0.20054991349489157
1614869902 0.39019835539365577 0.22194200103171063
1617719964 0.39307512288005725 0.22207934691882597
1620570026 0.38940219138805393 0.19756390680031904
1623420088 0.3848503512139771 0.14335888509932565
1626270150 0.3573269805062898 0.08559431811995137
1629120212 0.3306767236059965 0.012695126289793114
1631970274 0.29954909224791854 -0.05550028200426581
1634820336 0.26100472525629814 -0.1292832576350752
1637670398 0.21076909565695542 -0.18433092280242122
1640520460 0.15287275694025118 -0.20932136129136544
1643370522 0.12115685565076058 -0.2225505092323868
1646220584 0.08354025275461073 -0.21267417097418215
1649070646 0.05244851707698839 -0.17157864189999592
1651920708 0.02379280886109034 -0.11488870095035578
1654770770 0.0032520147580091022 -0.050557126208477896
1657620832 -0.020692864795396962 0.028463656528029478
1660470894 -0.04599866453194783 0.12337530735750603
1663320956 -0.06978639950961023 0.20995537398720665
1666171018 -0.10488692853682388 0.30961750961034135
1669021080 -0.10297894724180226 0.3967260547983341
1671871142 -0.11119869636531064 0.49045033771732177
1674721204 -0.10372858182742291 0.5742733565134039
1677571266 -0.06838082618159852 0.6666416163531103
1680421328 -0.019012268862976016 0.7382693567861432
1683271390 0.07681169930445136 0.8126251482965792
1686121452 0.18689837219808406 0.8541876467198397
1688971514 0.3365327646226187 0.8619908251185441
1691821576 0.5334365693918697 0.8401090663603886
1694671638 0.7426076563200429 0.773957113127918
1697521700 0.9340125357826669 0.6470491175516428
1700371762 1.065349095069026 0.45953091908902427
1703221824 1.1477749168040392 0.2502549362871453
1706071886 1.1560390976390944 0.011095289372097658
1708921948 1.0767165060351236 -0.1914535021651633
1711772010 0.967123721502495 -0.35180019404661406
1714622072 0.844518497713078 -0.4522310368834492
1717472134 0.677893008255639 -0.5226418736916142
1720322196 0.5157749341890916 -0.5613250979492806
1723172258 0.3507658339288765 -0.5738204036519661
1726022320 0.2020539551960225 -0.5501236020935503
1728872382 0.06131793522605327 -0.4942382689814774
1731722444 -0.0493462081462075 -0.4371183568023181
1734572506 -0.15229050463728946 -0.36992711408840967
1737422568 -0.23540761538843039 -0.28922433823357374
1740272630 -0.2902300367655939 -0.1863823869580518
1743122692 -0.326978940533925 -0.09344690774682538
1745972754 -0.3415509435707974 0.023342732525364725
1748822816 -0.326865104814035 0.1423392083437322
1751672878 -0.30042336359442434 0.28956459907158516
1754522940 -0.2277247894698289 0.44337801353745765
1757373002 -0.10890214439775908 0.6071448997122172
1760223064 0.07887532423541012 0.7581216513371808
1763073126 0.3151240803460302 0.8855623577080411
1765923188 0.5858563493075344 0.9314192115527431
1768773250 0.8667841951011196 0.9037800723224871
1771623312 1.162016505614685 0.7950362491275395
1774473374 1.317747112789321 0.5499733587156654
1777323436 1.3967381023244863 0.28368878588146434
1780173498 1.380498780446431 -0.005316143651120067
1783023560 1.2746273935541348 -0.2446723975946116
1785873622 1.0847371745613703 -0.40664814115527287
1788723684 0.8971298605037515 -0.5636935474144891
1791573746 0.6934162669117777 -0.6349748785466496
1794423808 0.5125382057311901 -0.7058179748314576
1797273870 0.3642845222107677 -0.7415441582150637
1800123932 0.22865235171634762 -0.7538308852823717
1802973994 0.11882866498361119 -0.7405551334989143
1805824056 0.03443427123336558 -0.7190184246292913
1808674118 -0.04841566499702337 -0.6650928961860633
1811524180 -0.10174290305109064 -0.610789504635233
1814374242 -0.1512190579299076 -0.5339801969027219
1817224304 -0.183369341028947 -0.44625857784816936
1820074366 -0.19458423234103273 -0.34365329638984965
