# HZ S RI R 50
700000000 0.06349789346914841 -0.6479918291353302
702850062 -0.06112538039612158 -0.6584885421414018
705700124 -0.18364181040508318 -0.6491210659499198
708550186 -0.29729258468309766 -0.624196816070819
711400248 -0.39829936191882054 -0.5791531107706972
714250310 -0.4905664464049993 -0.5132563518695308
717100372 -0.5643561464867468 -0.42729535321130696
719950434 -0.6183890986170928 -0.31674080854117914
722800496 -0.6497538901296387 -0.18655489505395206
725650558 -0.6534296434308073 -0.043696179184475555
728500620 -0.6273080794245786 0.10720200439820611
731350682 -0.5750691284992673 0.21964670716466603
734200744 -0.49541778649899054 0.3614981503232334
737050806 -0.38664374571326904 0.486348063027306
739900868 -0.25739312153298294 0.5832880918087832
742750930 -0.11243022993664847 0.6477535927849715
745600992 0.03419211434342641 0.6767743362190254
748451054 0.17971928228724232 0.6738817007127933
751301116 0.3151594546878292 0.6339844384937566
754151178 0.4361228638130422 0.5629295801805813
757001240 0.5339800610318147 0.46688623799025813
759851302 0.6056907229556526 0.34778005578209253
762701364 0.654711066197601 0.21549858698378244
765551426 0.67666967505885 0.07774091292566589
768401488 0.6747890974078887 -0.059797114731028944
771251550 0.6507076276748531 -0.18885860873054816
774101612 0.6056384330087405 -0.3081180434684538
776951674 0.545578429439809 -0.4156342572697408
779801736 0.46819086006578753 -0.5081210796695332
782651798 0.382289734502062 -0.5800227681101472
785501860 0.2806996031583076 -0.6335680815919442
788351922 0.170837437746243 -0.6649418517811411
791201984 0.05618336227403367 -0.6718700210054124
794052046 -0.06513713197266356 -0.6534837066698796
796902108 -0.18655525990649827 -0.6088538791814854
799752170 -0.2993718046936039 -0.5390154392182219
802602232 -0.39600719045752225 -0.4469286921679296
805452294 -0.4815238871967575 -0.3384169681397848
808302356 -0.5394673798938312 -0.22013174680769576
811152418 -0.5770116830536903 -0.09225939430568968
814002480 -0.5854411046843434 0.03609049654144108
816852542 -0.5689115972565741 0.15885477589474856
819702604 -0.5276986851327533 0.27209635839689156
822552666 -0.4612827554588717 0.3702234854554091
825402728 -0.36972866832071716 0.450855088630554
828252790 -0.2627273802249314 0.5077939295171332
831102852 -0.1438374800307964 0.5368543592363237
833952914 -0.01282969829000175 0.5400770809224373
836802976 0.11218354394776768 0.5130854245007849
839653038 0.2294065856699254 0.45903288340846465
842503100 0.3348432312389348 0.38444627206681586
845353162 0.41853815213104845 0.29276641546250004
848203224 0.48245435625434546 0.1921987161546497
851053286 0.5234707060113712 0.085301989036731
853903348 0.5442100080600734 -0.021285490995166082
856753410 0.5438967247366833 -0.12214670505239723
859603472 0.5200947446268814 -0.22098498536326083
862453534 0.48189437796132467 -0.3054841494854365
865303596 0.4239890495067974 -0.38397878622092335
868153658 0.3530793480006805 -0.4446721436031215
871003720 0.27122800222984633 -0.4853300409702318
873853782 0.18099022719282623 -0.5135159806581405
876703844 0.08980494177882405 -0.5229742450888192
879553906 -0.000866423869731026 -0.5142941942041935
882403968 -0.0889486192315379 -0.48919697791097394
885254030 -0.16382169466505286 -0.4500448901818277
888104092 -0.23582396460676944 -0.3946907153213977
890954154 -0.29340364136090236 -0.3289620739139858
893804216 -0.33760301234008333 -0.25534458458046855
896654278 -0.3685631630092495 -0.17056001218887715
899504340 -0.3834277199645992 -0.0845047991587562
902354402 -0.3806083243910764 0.0007234349811498602
905204464 -0.3614144482531013 0.08417056803473363
908054526 -0.3250650567129302 0.16104476455194544
910904588 -0.27910885483175285 0.22682872519240052
913754650 -0.21950162372061977 0.2796210509741324
916604712 -0.15004470623977711 0.3170437449880675
919454774 -0.0759365080475064 0.3344781789982325
922304836 -0.002773334845911864 0.33602602040164353
925154898 0.07039378601788868 0.3221689595318294
928004960 0.13582749448612683 0.29067446282926207
930855022 0.19484781738268095 0.24470098572165863
933705084 0.24109157683919025 0.1893019919056035
936555146 0.2754169589806498 0.1304050471502896
939405208 0.2971241926685052 0.06629031612634534
942255270 0.3066576234695405 0.0035004348800570404
945105332 0.3051256216016165 -0.05590575259111114
947955394 0.29397512871733383 -0.11176406467436192
950805456 0.2707236539831991 -0.15944859836413994
953655518 0.2431691721634632 -0.19996298152954334
956505580 0.2107987412560499 -0.23515589086473182
959355642 0.1756263756947131 -0.26109541604141323
962205704 0.1318398441226766 -0.2827367236663269
965055766 0.08719518771490788 -0.3006157626287519
967905828 0.0420437481363814 -0.3101527793462018
970755890 -0.002172206812946167 -0.3147744582684669
973605952 -0.04711386356451618 -0.31392589687112443
976456014 -0.08760634179130872 -0.308484340099165
979306076 -0.1257991594257036 -0.29918991710599663
982156138 -0.15944842107893314 -0.28411568819201505
985006200 -0.18707813883402508 -0.2633654078076911
987856262 -0.21128617917764705 -0.2457740219757826
990706324 -0.2249153109071919 -0.21765402346706322
993556386 -0.2318817605146698 -0.1883337545913492
996406448 -0.23453632115517578 -0.15548710321342368
999256510 -0.2289899790360361 -0.12406253070138722
1002106572 -0.21388648871228208 -0.08901923218348695
1004956634 -0.20078574756495732 -0.04850267937067649
1007806696 -0.1812604976965079 -0.012096811068694415
1010656758 -0.1593535232180867 0.026338679000536058
1013506820 -0.13552127260325092 0.06041456128802
1016356882 -0.10763490055257229 0.10223749414642501
1019206944 -0.07449028798574364 0.14311382281461502
1022057006 -0.03814520606082051 0.17571529177914463
1024907068 -0.0004804940942061575 0.20226835313806563
1027757130 0.03839672932885331 0.21735956026832196
1030607192 0.08792348745274255 0.22460722853991133
1033457254 0.1324982031326402 0.21932073380618816
1036307316 0.18050250326975043 0.20247644995132577
1039157378 0.22205815087186254 0.16848385477620953
1042007440 0.2592975898209777 0.12526291650432045
1044857502 0.28776785464559623 0.07269603750337775
1047707564 0.30760915610449374 0.012371333912284005
1050557626 0.3179373515616301 -0.05713027705746248
1053407688 0.3160176123816707 -0.1319580951945706
1056257750 0.2970800152060146 -0.20359941772030432
1059107812 0.2693894893332025 -0.2734496652368771
1061957874 0.22574785199683622 -0.3359994025717059
1064807936 0.16464449397110414 -0.39386851125263245
1067657998 0.09464187955838341 -0.4321118085536592
1070508060 0.020693475544983617 -0.4549200677353397
1073358122 -0.0703047298090409 -0.4649239743792434
1076208184 -0.164955265902014 -0.450911164084798
1079058246 -0.25163982773325244 -0.4220406972355367
1081908308 -0.33338551008978795 -0.3762412045180165
1084758370 -0.4116875601104441 -0.3160577743051549
1087608432 -0.4742207950057732 -0.23919095010578778
1090458494 -0.5175849999022809 -0.15174745349338584
1093308556 -0.5414321767595528 -0.061828186496446016
1096158618 -0.5508857490614144 0.032127137421294104
1099008680 -0.5357100766000288 0.12334977030808589
1101858742 -0.5002571085335802 0.2047375360364185
1104708804 -0.45018064682693526 0.28215024516755377
1107558866 -0.3811329549783571 0.34283791349953663
1110408928 -0.29510036249647376 0.395271381094114
1113258990 -0.201171731708054 0.42741042883329056
1116109052 -0.10214111800730699 0.4397324219305576
1118959114 0.0025976436965869936 0.43830626542479745
1121809176 0.1102533999773778 0.4181162920421456
1124659238 0.20801167753560074 0.3684476050133095
1127509300 0.29544914724471544 0.3112931152361114
1130359362 0.3806693093174224 0.22729028362494938
1133209424 0.4435597974995131 0.12404898889942045
1136059486 0.4853373353452179 0.005555062748986535
1138909548 0.5048326612818216 -0.1207206043222253
1141759610 0.49654918817589044 -0.25916911432645934
1144609672 0.4415476842536767 -0.4008699815750908
1147459734 0.3610361473484453 -0.5215998600434851
1150309796 0.26313095310575785 -0.6189236231824076
1153159858 0.13869273961254652 -0.7020339803786677
1156009920 0.001015288129475439 -0.7483966972309418
1158859982 -0.13050625204515656 -0.7512917682689393
1161710044 -0.2664358780404856 -0.7189356898747905
1164560106 -0.38451307158826165 -0.6539867679617181
1167410168 -0.48415372750779917 -0.5650538264278507
1170260230 -0.5491020408775713 -0.45646637546186253
1173110292 -0.5889783800994745 -0.3337108784384522
1175960354 -0.6037858451471043 -0.20153131640749308
1178810416 -0.5933483528612666 -0.0672375737024563
1181660478 -0.5629550468040431 0.05216022370624707
1184510540 -0.5126900607055892 0.15539740657305232
1187360602 -0.44904493280244834 0.25388874186703575
1190210664 -0.3825235235170445 0.33181335078463675
1193060726 -0.30085061737883323 0.3904292803996422
1195910788 -0.20622458638360217 0.4319747355066688
1198760850 -0.11971377177160496 0.4502775346586672
1201610912 -0.02507893080945941 0.4549696182195562
1204460974 0.06854296604545781 0.433574157596857
1207311036 0.1593071603883773 0.39041574056412737
1210161098 0.24530475109638775 0.3284524096411868
1213011160 0.3143192978653162 0.2538476604214422
1215861222 0.37259219866051646 0.16687788829864256
1218711284 0.41463097475975313 0.06609071947629741
1221561346 0.4287956084928309 -0.037532716639596515
1224411408 0.42780571651426585 -0.13314562613291925
1227261470 0.4004502433130404 -0.22363904660894154
1230111532 0.35074140437836543 -0.29565451475923404
1232961594 0.27571299366045665 -0.35243441882474114
1235811656 0.18803994036724467 -0.3829125411927332
1238661718 0.08979505864863914 -0.3903291089937817
1241511780 -0.014855246761936681 -0.37316060800486034
1244361842 -0.10630206044865707 -0.3361262059690726
1247211904 -0.1945353087381301 -0.2816893159746784
1250061966 -0.2689360640300478 -0.22307952513054666
1252912028 -0.3289828208382468 -0.16012613524069136
1255762090 -0.37682293786363136 -0.09798839204461045
1258612152 -0.4109654812953855 -0.0387026930758876
1261462214 -0.43288554798046264 0.011149476701238102
1264312276 -0.4362665700067668 0.0554469439310876
1267162338 -0.4293669787744457 0.080646931298921
1270012400 -0.4163190337080948 0.10658192313763513
1272862462 -0.3915214428053785 0.11381303879862119
1275712524 -0.33970499585347763 0.12902976912581188
1278562586 -0.31255058406657665 0.13273400962508017
1281412648 -0.27781215917973845 0.126907471168696
1284262710 -0.24479315958216746 0.11943870780953819
1287112772 -0.2149045232663363 0.11143181149921148
1289962834 -0.18659310855200556 0.11283496407272893
1292812896 -0.16250243843470613 0.10901030836744707
1295662958 -0.13734503816909638 0.11673432109703129
1298513020 -0.12176367303692322 0.12204178762505935
1301363082 -0.10692021982467433 0.137066306217211
1304213144 -0.09267082686748575 0.13983411374815766
1307063206 -0.08157561097475878 0.155190106578406
1309913268 -0.07312097332931015 0.1633991856256801
1312763330 -0.06100901264124481 0.16568798696524778
1315613392 -0.047682869498791546 0.16225822972270754
1318463454 -0.03349664230024149 0.1545821707419458
1321313516 -0.01261759316742219 0.13168180553571152
1324163578 0.014396083900390424 0.09907436019386397
1327013640 0.048259495721626126 0.06358753992006218
1329863702 0.07405879893272944 0.013659589777134247
1332713764 0.09685769188116851 -0.043642571986857726
1335563826 0.12459564269677631 -0.1122392227704058
1338413888 0.14065120099974998 -0.18495000898250688
1341263950 0.15973616378343217 -0.24412845202923358
1344114012 0.15055543204835356 -0.3111455165068833
1346964074 0.12743310386908216 -0.3652602817181651
1349814136 0.08898813585577331 -0.39911464214517844
1352664198 0.02874005468457069 -0.4134413541594072
1355514260 -0.05194714108017661 -0.40742063941411016
1358364322 -0.14709850881540856 -0.38620265926765507
1361214384 -0.2274028484545276 -0.33374665428182265
1364064446 -0.3189594125590361 -0.2668247249129759
1366914508 -0.4063886002414241 -0.1782286919561694
1369764570 -0.47588565594609944 -0.09002704902217222
1372614632 -0.5270815263507344 -0.004901397763190021
1375464694 -0.5588555675933232 0.08643630036702102
1378314756 -0.5749118105361234 0.17088885645094318
1381164818 -0.5714980423289027 0.25266324413617997
1384014880 -0.5439708216068055 0.3197930491807241
1386864942 -0.5138463120759647 0.3806028212260909
1389715004 -0.4609124200056407 0.43422826472607867
1392565066 -0.39026577257081296 0.47517477003084446
1395415128 -0.30408221780367306 0.511662243495499
1398265190 -0.1987960252355206 0.5449252553403022
1401115252 -0.07878115785528134 0.5626138448057459
1403965314 0.03560489365434974 0.5664535236075263
1406815376 0.1675305251316034 0.545478252706973
1409665438 0.29966001474145937 0.5116103955850294
1412515500 0.421276603252632 0.47293243151500886
1415365562 0.5328462496995662 0.38760995491549927
1418215624 0.6245034650246345 0.2925314993513336
1421065686 0.6852104296929521 0.15545800266180318
1423915748 0.6965658055952825 -0.012551326354870461
1426765810 0.6340350632876929 -0.1868627222141678
1429615872 0.4993864386481734 -0.3591398359098623
1432465934 0.317570738370699 -0.5053416217028354
1435315996 0.10834012910159639 -0.5977996476830595
1438166058 -0.11302195188528848 -0.6202458058636091
1441016120 -0.313155667214281 -0.5973389573181493
1443866182 -0.49526852357493323 -0.5462064910467814
1446716244 -0.6258767543405217 -0.4730921247302458
1449566306 -0.7056085566816523 -0.3837515428227933
1452416368 -0.757052745994335 -0.2806345164931866
1455266430 -0.7709879526670054 -0.17734613330803464
1458116492 -0.7650301217069673 -0.07517342722176695
1460966554 -0.734023092188736 0.029274507339067148
1463816616 -0.683616090288237 0.1407753160418499
1466666678 -0.6167112179946641 0.2640646214218338
1469516740 -0.5460320913293526 0.3859717676090888
1472366802 -0.4693561528114508 0.5263952131433683
1475216864 -0.3906741835588648 0.6770439617413784
1478066926 -0.309320431823198 0.8265735412792503
1480916988 -0.24413878719956417 0.9521866030554706
1483767050 -0.16146183443193 1.1013365839991416
1486617112 -0.0746864924841918 1.2204617497694032
1489467174 0.046428602959606144 1.2807274706748308
1492317236 0.16694473183874908 1.3342129486029035
1495167298 0.2940142800204804 1.350613381294371
1498017360 0.49826665669329595 1.2366193749097425
1500867422 0.6893224578263241 1.0165402102240577
1503717484 0.852507676880467 0.7429793407942358
1506567546 0.9199362196604713 0.39683777230080397
1509417608 0.8712992582073271 0.035493549829875466
1512267670 0.7305305546990536 -0.2511454710258878
1515117732 0.5281482857770792 -0.4752258743958978
1517967794 0.3339548277407283 -0.5739697349793481
1520817856 0.14010546005524527 -0.6005601051686731
1523667918 0.01618316628233945 -0.5811366196696588
1526517980 -0.1017147011543776 -0.5129025476496701
1529368042 -0.1872584443613238 -0.40348628458777236
1532218104 -0.24936573676699147 -0.27609269665131403
1535068166 -0.29292044280019264 -0.13924199985121502
1537918228 -0.32544573182582726 -0.008706411220751132
1540768290 -0.3547401976530777 0.11930378041761142
1543618352 -0.38466168004045465 0.2428350844344538
1546468414 -0.39539916193752317 0.34349444595532996
1549318476 -0.4055629923847638 0.44374185949474815
1552168538 -0.40672063772519307 0.49982541143071263
1555018600 -0.4064650299494991 0.5606163002835843
1557868662 -0.391710124686078 0.6002704996940231
1560718724 -0.3538827037617765 0.6308548031507563
1563568786 -0.19654591316893288 0.6061908504300548
1566418848 -0.15993458696534502 0.5775992107593911
1569268910 -0.08138791147700002 0.5411507104361516
1572118972 -0.025118644510616763 0.4862142820025909
1574969034 0.039480630725952814 0.44674463906511847
1577819096 0.11576878516542044 0.36089673777819853
1580669158 0.18016648662445256 0.29714176953741955
1583519220 0.2525046603237474 0.23578670867220278
1586369282 0.2976555906332201 0.1760807713250649
1589219344 0.3336427771372626 0.12214985375703102
1592069406 0.36447102818114896 0.08533830578152767
1594919468 0.383347027759562 0.05670574055421355
1597769530 0.392099046441444 0.046550765892373266
1600619592 0.4511865602202475 0.05486779291530078
1603469654 0.43813777754111 0.08428538305433692
1606319716 0.42807917572082016 0.11651215054880662
1609169778 0.4114138024920947 0.1501859936863458
1612019840 0.4051563384581865 0.18289749768646915
1614869902 0.38642926652131704 0.19235063160268856
1617719964 0.39603135300219483 0.20336591791273387
1620570026 0.3834438824956139 0.17682436061292306
1623420088 0.37601534206721504 0.14413605148693592
1626270150 0.35479279080858533 0.08574941805050336
1629120212 0.3321543752393008 0.02046744412877092
1631970274 0.29514707535168766 -0.0400736574465731
1634820336 0.25605463887590496 -0.10677020531350365
1637670398 0.21091915457402663 -0.16452779472550588
1640520460 0.1589074946257252 -0.19630921450355884
1643370522 0.12626803161737918 -0.21245242841187473
1646220584 0.08306344357738615 -0.21050501541135852
1649070646 0.04588016557224946 -0.17240468803232983
1651920708 0.027220644992693447 -0.1296543970949505
1654770770 -0.0020570114673081823 -0.06227024889750035
1657620832 -0.02995049978744156 0.013512760633904247
1660470894 -0.05109857768985506 0.10811100608076055
1663320956 -0.06965124330914707 0.2015885943176059
1666171018 -0.09648276519252903 0.2984065843849811
1669021080 -0.10340500037151144 0.3947285767814508
1671871142 -0.10374453647980628 0.4881946655060901
1674721204 -0.0937943340113727 0.5760161373056926
1677571266 -0.051183854780479314 0.6725077946418956
1680421328 0.0008566886582455238 0.7519587401585893
1683271390 0.09250848856367244 0.8150195769242232
1686121452 0.20586217287038866 0.8641470484273696
1688971514 0.36083285896201395 0.8660605591413193
1691821576 0.5506507745684343 0.8352040928277098
1694671638 0.7554093498627965 0.7560859775072758
1697521700 0.9280612755321673 0.6380423858920934
1700371762 1.039165172465858 0.442116159177206
1703221824 1.1308550741052381 0.2270276945578734
1706071886 1.1114816965950887 -0.0011746779308117042
1708921948 1.0301642936429465 -0.17603183634262073
1711772010 0.9280611664361291 -0.3438332787027959
1714622072 0.8079605661048561 -0.45425901982523464
1717472134 0.6537563973695937 -0.5166904186920556
1720322196 0.50155355473578 -0.5498993073053838
1723172258 0.34518315331904875 -0.5715841693450676
1726022320 0.19871201975645708 -0.5475192101634393
1728872382 0.05623622274387739 -0.49782390134391846
1731722444 -0.04580394868597815 -0.4415087747375344
1734572506 -0.1474565658875171 -0.36844020443166065
1737422568 -0.22445459164280832 -0.29967810865549
1740272630 -0.2811658802598918 -0.19158119654916816
1743122692 -0.32032753435548444 -0.08757278469852262
1745972754 -0.33336050076022816 0.023710868257274486
1748822816 -0.32286641281447576 0.14690938218364819
1751672878 -0.298790226139553 0.2975641880925688
1754522940 -0.22282060573889192 0.45281075982725694
1757373002 -0.0966705360902209 0.6153738893886614
1760223064 0.07340543546249939 0.7743659936352022
1763073126 0.31556292356697957 0.892466965984538
1765923188 0.5893083176198005 0.9446684640997057
1768773250 0.8791515870520931 0.9011055356146143
1771623312 1.1417014210633365 0.7773217391907583
1774473374 1.2903441812360283 0.5225972107761847
1777323436 1.3573011923582363 0.2547361072395446
1780173498 1.3357135098247959 -0.031546252039981175
1783023560 1.229709592688126 -0.26459378457481464
1785873622 1.0448307030566382 -0.41613673193044104
1788723684 0.8681690294670005 -0.5637408002724437
1791573746 0.675398572665537 -0.6374599085912243
1794423808 0.5062699970355466 -0.7081434842342236
1797273870 0.36071381471834274 -0.7316714050713001
1800123932 0.2317761065140261 -0.7458402474957816
1802973994 0.12212460102301456 -0.7287189492782573
1805824056 0.03508506550343154 -0.7046807874958153
1808674118 -0.046986872965801424 -0.6537385250618541
1811524180 -0.09165157634089775 -0.5997774947237259
1814374242 -0.14856274052093896 -0.5228877054387305
1817224304 -0.18401389624488207 -0.439593917521386
1820074366 -0.19522760235856232 -0.335763992033973
