# HZ S RI R 50
700000000 0.0687999988439887 -0.6516156004857142
702850062 -0.05561599954993131 -0.6638479810049199
705700124 -0.1765814377538173 -0.6557680055779967
708550186 -0.2914745219033605 -0.6299214558786412
711400248 -0.3933918157598378 -0.5857716042818857
714250310 -0.48562365279523234 -0.5194989503399987
717100372 -0.5637617066261078 -0.4315746647386752
719950434 -0.6194139668869889 -0.3220440894911268
722800496 -0.6543508618985896 -0.18907824448003507
725650558 -0.6601200441612952 -0.046765483711380874
728500620 -0.6338552480648257 0.10539122838926944
731350682 -0.5844724264849218 0.2164344042375162
734200744 -0.5053749919834827 0.3603800146340905
737050806 -0.3967952154004165 0.48529801515178494
739900868 -0.2666111417937013 0.586884960815925
742750930 -0.12060558584699171 0.6486368113475729
745600992 0.025799724454039646 0.6806295175200274
748451054 0.1736839159013305 0.6747457710277939
751301116 0.31216672928323497 0.637150546610702
754151178 0.43370928834798944 0.5685100567276983
757001240 0.5350388922364109 0.46915575178115604
759851302 0.6089259625666166 0.35254725300991796
762701364 0.6594337258380498 0.21990115781878605
765551426 0.6821370825321281 0.08587619774744387
768401488 0.6829750389308644 -0.05381106449026003
771251550 0.6599938854122386 -0.18439591145820794
774101612 0.6134369687843766 -0.30393443968415
776951674 0.5538721852461036 -0.4124343462629405
779801736 0.4766826858311329 -0.5044084796161372
782651798 0.3904592944494071 -0.5770546841091443
785501860 0.2875201791968683 -0.6333324253920571
788351922 0.1768230762054979 -0.6640218898468975
791201984 0.057870348768780534 -0.675105522180555
794052046 -0.06289287219175048 -0.6574094001057604
796902108 -0.18574403921561047 -0.6130453039769067
799752170 -0.29909952242319426 -0.547440812720173
802602232 -0.40095485799427244 -0.4560290287606606
805452294 -0.4840986570931629 -0.3494679617561339
808302356 -0.5444550273219517 -0.2305282309117195
811152418 -0.5817736731654494 -0.10062098066624779
814002480 -0.5902070808696948 0.026308232082407654
816852542 -0.5727564325272441 0.15444231820188764
819702604 -0.5336878777967625 0.26519582966662153
822552666 -0.4656088422092636 0.3666407779997292
825402728 -0.37339671874015634 0.4469366004777503
828252790 -0.26521917474035384 0.5079777225389153
831102852 -0.14545592599960247 0.5387509691713188
833952914 -0.014686442722111025 0.5450153090423908
836802976 0.11138432531319042 0.519770925126334
839653038 0.22873202968515893 0.467942521213927
842503100 0.334657022559508 0.395799185582813
845353162 0.4178500939168113 0.3041857921673633
848203224 0.48364774802683885 0.20012069064994986
851053286 0.5247746176893677 0.09263782320296082
853903348 0.5464436752534545 -0.01535866829771873
856753410 0.5453325292267739 -0.11635418356293827
859603472 0.5229024346571122 -0.21828952136034932
862453534 0.4832970966878488 -0.3052610851507963
865303596 0.42811643304370334 -0.3837893895377649
868153658 0.35572660008217555 -0.44725952468230656
871003720 0.27601365473270856 -0.49056501898630683
873853782 0.18572266328187018 -0.5186955238468605
876703844 0.09366578636756771 -0.5308294159297346
879553906 0.005173517046148145 -0.5213627191042839
882403968 -0.08345297298479164 -0.4973966432653979
885254030 -0.15892988982688117 -0.45696053153368843
888104092 -0.2296426170773766 -0.40141798576229265
890954154 -0.28950677298196786 -0.3349134538655939
893804216 -0.3347979177995253 -0.25829665463573775
896654278 -0.36713730087976404 -0.17162048445832734
899504340 -0.38390650124287085 -0.08549951262684893
902354402 -0.38171843817401896 0.0023889657961265794
905204464 -0.36414934859001646 0.08501479927452817
908054526 -0.33029899930959455 0.16296392784373964
910904588 -0.2853133453656193 0.22914278708674077
913754650 -0.22607663810098333 0.28229044003287307
916604712 -0.15977524109065067 0.3183692483936026
919454774 -0.08388222954613127 0.33782280868278863
922304836 -0.010198545775132092 0.3381948146594369
925154898 0.061200210757949576 0.32259530569058265
928004960 0.1317958357095461 0.29179160081296984
930855022 0.19175431126158193 0.24543784402658636
933705084 0.23914391827750167 0.19021013242558465
936555146 0.2761374065563885 0.13037936863387817
939405208 0.29899702521801785 0.06588715197287234
942255270 0.31169825051082006 0.003240299414885483
945105332 0.3118752164600173 -0.05491729776995097
947955394 0.3017631136412081 -0.11063492237766576
950805456 0.2808178914709111 -0.157296855665144
953655518 0.2527279841095525 -0.19643224008430654
956505580 0.21764964111128504 -0.2347874772458723
959355642 0.18204166840714395 -0.2599331108298411
962205704 0.13716329144732103 -0.28045622778452295
965055766 0.09155478125229333 -0.2989542308481379
967905828 0.04501009378137909 -0.30928017201605007
970755890 -0.0020344901949331793 -0.3153000559634491
973605952 -0.04683770338685135 -0.31531042730809106
976456014 -0.08916975970400498 -0.3090904777111592
979306076 -0.12725635247739484 -0.30097296355981984
982156138 -0.16210567901844178 -0.28688589813453247
985006200 -0.18930560352368742 -0.268050128643913
987856262 -0.21237984995809975 -0.2514049310840766
990706324 -0.22956247709289584 -0.22420319533662922
993556386 -0.2323501795509605 -0.1920211714787725
996406448 -0.2334531951511277 -0.16184731404661096
999256510 -0.22841085704336747 -0.12859467415272624
1002106572 -0.2146622003233534 -0.09389852631815339
1004956634 -0.19882640376116228 -0.052150923117974764
1007806696 -0.18046758166213275 -0.014154872809054898
1010656758 -0.15846525744937015 0.025928461582785677
1013506820 -0.13610397702860055 0.06129244103836344
1016356882 -0.1090546980223702 0.10558409438565246
1019206944 -0.07695205641168573 0.1492515277068159
1022057006 -0.0409332429781647 0.18124105792049477
1024907068 -0.0021222131259569493 0.2066701980858621
1027757130 0.03686902210526777 0.22289106857978236
1030607192 0.0833588538814845 0.2298854209881111
1033457254 0.1292470654457431 0.22463250749542085
1036307316 0.17574446223040474 0.20606088858392668
1039157378 0.22071674075631983 0.17342543504823787
1042007440 0.2575429071067646 0.12662831798287386
1044857502 0.287414820131966 0.07453344928121472
1047707564 0.30728047714419 0.012653859593850996
1050557626 0.3195007689531046 -0.05782016697924425
1053407688 0.31690401569591786 -0.1321457315244517
1056257750 0.30172889239652034 -0.2051984896113578
1059107812 0.2776605073947681 -0.27418868648389455
1061957874 0.2306457178301593 -0.33816707772905114
1064807936 0.17321305854393038 -0.39434150945968216
1067657998 0.10587436182327235 -0.4323943244027436
1070508060 0.028008811207049712 -0.4587265931727835
1073358122 -0.06410137609855125 -0.4685930113321657
1076208184 -0.16044251645874635 -0.4556639703163105
1079058246 -0.24942840179364056 -0.42739714245397364
1081908308 -0.33440529039892136 -0.3828294833854783
1084758370 -0.41447815630081797 -0.32332831780146193
1087608432 -0.47790564287114684 -0.2452015563940625
1090458494 -0.5241218377417836 -0.16135886002771238
1093308556 -0.5500911336030323 -0.07065593717251432
1096158618 -0.557133505570538 0.025790421065951172
1099008680 -0.5447368281918872 0.12077475586221086
1101858742 -0.5087824778814347 0.20353591942188612
1104708804 -0.4565921237667474 0.2764455420535764
1107558866 -0.3877360286034126 0.340528525619035
1110408928 -0.30040403763822376 0.3945078371986081
1113258990 -0.20378302175350044 0.42996955894482947
1116109052 -0.10464896917750803 0.44288209230774567
1118959114 0.0028825062307986826 0.4442655517145244
1121809176 0.1105322199481263 0.4243872417879822
1124659238 0.20862339605788283 0.3760807127659594
1127509300 0.2967360783583103 0.31993479036509465
1130359362 0.3834381480235561 0.23366860566658978
1133209424 0.4528461468281874 0.1280074484592036
1136059486 0.4911535865693297 0.016408002593566614
1138909548 0.5081541093529673 -0.11217416250994826
1141759610 0.5007736650793538 -0.250278414572228
1144609672 0.4463864102307179 -0.3963730296843572
1147459734 0.365823635759679 -0.5191798929472301
1150309796 0.26825486178790336 -0.6213448970889339
1153159858 0.14594989087832816 -0.707086264151745
1156009920 0.006938145855233324 -0.7573468100027427
1158859982 -0.12693573476052816 -0.7640150526109438
1161710044 -0.26120803385049074 -0.7382797320969572
1164560106 -0.3823756372419432 -0.6705675527243136
1167410168 -0.4794368260320307 -0.5813573736118792
1170260230 -0.5509401333174125 -0.467917043638035
1173110292 -0.5914354250826379 -0.347232678004709
1175960354 -0.6101792138880962 -0.21037430814178001
1178810416 -0.5986114215038099 -0.07395792859874005
1181660478 -0.5680214263616995 0.04849610321181775
1184510540 -0.5213097032514137 0.15558627896992366
1187360602 -0.4558567260481752 0.2566194811483059
1190210664 -0.3899433432630658 0.3363655871331458
1193060726 -0.3081648112165613 0.39649411265195755
1195910788 -0.21592119402596738 0.4362373012381407
1198760850 -0.12373123726767661 0.4576234118051658
1201610912 -0.031182370029705864 0.4597942084165119
1204460974 0.06057950638750806 0.4364444619924156
1207311036 0.1536574006919457 0.3942042343642023
1210161098 0.24161509556215427 0.33130006896663
1213011160 0.31192568043512237 0.25586561373843925
1215861222 0.37161456749024074 0.16464526880783434
1218711284 0.41677497115693296 0.06669192824443713
1221561346 0.4336515379309991 -0.03920692929801407
1224411408 0.4361647786421956 -0.13402746482275918
1227261470 0.4088523425810948 -0.2250324054903174
1230111532 0.3607219557931558 -0.29582447741635465
1232961594 0.28948287074854007 -0.35212558137361544
1235811656 0.1995120963584128 -0.3837710583141424
1238661718 0.1012771631703748 -0.3918678701176542
1241511780 -0.0028169392830851587 -0.3728892701403606
1244361842 -0.09546681095684967 -0.33730909944669485
1247211904 -0.19030955263348415 -0.28137028017231197
1250061966 -0.2636603969213797 -0.2224524744610674
1252912028 -0.3292805783061699 -0.1604597294993514
1255762090 -0.38414239203403977 -0.10123316447270045
1258612152 -0.4184349239597907 -0.039953367852060016
1261462214 -0.44019487316719963 0.012485001082152425
1264312276 -0.4499098335075703 0.05292382916131488
1267162338 -0.44232447569228894 0.08408042105020808
1270012400 -0.4273802291155694 0.10403036961689922
1272862462 -0.4019956069658116 0.11595371057014739
1275712524 -0.3510114680618586 0.13040279128052332
1278562586 -0.3168081122084597 0.12791471121879264
1281412648 -0.2840601871121676 0.12217909055578083
1284262710 -0.24720930427180013 0.1150156842804327
1287112772 -0.21314218827270132 0.10782673851373693
1289962834 -0.183180990207867 0.10917542318461418
1292812896 -0.15776996949371588 0.10567301966315878
1295662958 -0.13557251774744866 0.11248372294540597
1298513020 -0.11927290554687414 0.1200026458364642
1301363082 -0.1038424391115811 0.13856741100181372
1304213144 -0.09737122733131051 0.14572238887153421
1307063206 -0.07955968648183763 0.1612908118147149
1309913268 -0.07697528889317654 0.1712782792424062
1312763330 -0.06113969695590408 0.176690322072354
1315613392 -0.052753089462266804 0.16965697797834547
1318463454 -0.04095850639261383 0.16595951960444763
1321313516 -0.018658086590700132 0.14163103309510425
1324163578 0.0102466904046952 0.10245516746799843
1327013640 0.04054541998319446 0.06477947208113467
1329863702 0.07118948554707845 0.011563581147306845
1332713764 0.09664328173742191 -0.046341791788082884
1335563826 0.12167930944660423 -0.12164872201758047
1338413888 0.14827847474860487 -0.19752541530946474
1341263950 0.15798307519928514 -0.2569270248352607
1344114012 0.14953804868870932 -0.32322842884214503
1346964074 0.13196125044118628 -0.38224389426117894
1349814136 0.09722653556557369 -0.413064424416397
1352664198 0.03293993412690209 -0.41338997932820154
1355514260 -0.042412987790209224 -0.4191688667917718
1358364322 -0.13852816031572907 -0.3860033093985952
1361214384 -0.22173784981176253 -0.336381057927414
1364064446 -0.31303990634402024 -0.26471914756110054
1366914508 -0.4015555167864067 -0.17742134220517866
1369764570 -0.47318831934380146 -0.08452539560463326
1372614632 -0.5262884219184276 -0.003062106064824926
1375464694 -0.5630642419443508 0.08434070877742304
1378314756 -0.5833835097058888 0.17135964494446096
1381164818 -0.5866288147159682 0.25159843866021625
1384014880 -0.5588089454647238 0.316065799544506
1386864942 -0.5292275388556864 0.3776391370062772
1389715004 -0.47329692630938397 0.43004045786250505
1392565066 -0.4047204418510022 0.47465439199668646
1395415128 -0.31487697739532206 0.5096358425773537
1398265190 -0.21015169113434073 0.5458828847996515
1401115252 -0.08701182629698803 0.5641590766819133
1403965314 0.03204980803397086 0.5671166617779647
1406815376 0.16766460797748162 0.552324278855048
1409665438 0.3066463858108038 0.5226057550219085
1412515500 0.43533698774267343 0.4793719912271755
1415365562 0.5421529597149083 0.4076011092941973
1418215624 0.6369692476002626 0.30101529293799256
1421065686 0.7012840568660096 0.1615471261765996
1423915748 0.7076041506360955 0.0060114209732485815
1426765810 0.6458697324235693 -0.1804453594083179
1429615872 0.513211896611622 -0.35712350583815394
1432465934 0.32438307740334354 -0.5010608633191563
1435315996 0.11415682154425233 -0.5973739688069294
1438166058 -0.11520865455960345 -0.6173768838165702
1441016120 -0.3172297890159574 -0.5960340698498224
1443866182 -0.5007948446072199 -0.5482786734268087
1446716244 -0.6370019012517787 -0.4751650568257424
1449566306 -0.7198097221695015 -0.3859976019911812
1452416368 -0.7623364567623138 -0.28704926730959723
1455266430 -0.7847425027908785 -0.1861816696291116
1458116492 -0.7758929118898141 -0.085745302615765
1460966554 -0.7436216222545778 0.01827861617576665
1463816616 -0.6910025749991937 0.12889961463709557
1466666678 -0.6264014505053013 0.2546321931830744
1469516740 -0.5519555841305317 0.37822563374849943
1472366802 -0.4739102314778163 0.5224903982139005
1475216864 -0.396062150735217 0.6792719734542151
1478066926 -0.3261324121728359 0.8292438611209209
1480916988 -0.2536895895933142 0.969130642394163
1483767050 -0.187997506463438 1.1191480726436058
1486617112 -0.09702914389157025 1.2371131481158322
1489467174 0.02223121724680656 1.3059535658474246
1492317236 0.14546131086622283 1.3706083946300034
1495167298 0.25599814981643815 1.371015412142755
1498017360 0.48062556072042956 1.2689913448861991
1500867422 0.6780290122847124 1.03613747031348
1503717484 0.8402521365785061 0.7559587748689656
1506567546 0.9193838657363623 0.403115173367211
1509417608 0.857230197107687 0.036969852354480616
1512267670 0.721245338735258 -0.265033700226111
1515117732 0.5260504576549327 -0.48483475256943875
1517967794 0.3277521939173135 -0.595616203559523
1520817856 0.14217157690491283 -0.6159708356427417
1523667918 0.01845542947114834 -0.5917225983325939
1526517980 -0.09972039630468586 -0.5253464707014529
1529368042 -0.17962087586409684 -0.411907266071435
1532218104 -0.24533486531052448 -0.2846554998437167
1535068166 -0.28270480323334624 -0.1438929704398031
1537918228 -0.32276550481398586 -0.014129813184916686
1540768290 -0.35802395861857206 0.11578946342108899
1543618352 -0.39512347350458804 0.24063480120424474
1546468414 -0.40250905159423284 0.33981125539630935
1549318476 -0.4177033134265467 0.44305138007714745
1552168538 -0.42392272474227843 0.5048787929531359
1555018600 -0.4213482790428418 0.56480127488189
1557868662 -0.4096610971787066 0.6031776880616571
1560718724 -0.3785939206694918 0.6289413778299485
1563568786 -0.21679296228741704 0.6126278274679765
1566418848 -0.17675263403088812 0.5816175370117577
1569268910 -0.09126450083930834 0.5547569171362181
1572118972 -0.03343172090740618 0.49879676284547503
1574969034 0.04032894511431099 0.4440010193974413
1577819096 0.11450475777230983 0.3642733172488693
1580669158 0.18522771341779154 0.29016016943551426
1583519220 0.25709154933391926 0.22857219029397047
1586369282 0.30729719132103234 0.1616072758059774
1589219344 0.3428566845287791 0.11903735383793079
1592069406 0.37758872764149093 0.08364366711040455
1594919468 0.391089950653949 0.055563268320733904
1597769530 0.39820101096376864 0.04702063207152015
1600619592 0.45366014668996557 0.07488985207848436
1603469654 0.4398484959509282 0.10567759147028938
1606319716 0.4283975459764953 0.13463123283703843
1609169778 0.41418052957900814 0.1726084230422427
1612019840 0.40754096829312586 0.20006690110659664
1614869902 0.39420613662056075 0.20731637978447695
1617719964 0.3950050717115047 0.21263520671187375
1620570026 0.38226126733734184 0.1906200787697362
1623420088 0.38111719261519633 0.14532875410613544
1626270150 0.3501313622628147 0.0804256773254896
1629120212 0.32659879211076165 0.015781584159816016
1631970274 0.2958884829716121 -0.049112106338089476
1634820336 0.2575990016740219 -0.11444900102808825
1637670398 0.21484791510134088 -0.17058916941527877
1640520460 0.16268832698431146 -0.2005534726409628
1643370522 0.1261049141443408 -0.21463547949243034
1646220584 0.09733920131488696 -0.20845791579739625
1649070646 0.05626657290962267 -0.17400021541147237
1651920708 0.02987032757926734 -0.1332298710942515
1654770770 0.010055433822824384 -0.053522276120372594
1657620832 -0.025827374525749087 0.023227133964658517
1660470894 -0.04944936496466251 0.10840906534180401
1663320956 -0.08311947714022344 0.20824143852618218
1666171018 -0.09974716605906858 0.3053016524762458
1669021080 -0.11134002765774982 0.40350129535194834
1671871142 -0.11803886464757969 0.491612957949276
1674721204 -0.11051321841720436 0.5862307797687124
1677571266 -0.07210318755001274 0.674665809175781
1680421328 -0.022720097760869886 0.7512223331518848
1683271390 0.07351792159732148 0.8133747906173322
1686121452 0.19359490765921275 0.8706168352507021
1688971514 0.3482016585831443 0.8832983019265772
1691821576 0.5537646632238079 0.8486957792891613
1694671638 0.7508569221447271 0.7697795621182373
1697521700 0.9272906178456287 0.6374695298687385
1700371762 1.0628422116517477 0.4536013402671954
1703221824 1.1425165529710293 0.23328226445129985
1706071886 1.1511076729896659 0.009143261409444546
1708921948 1.0672355939248892 -0.1832521545826293
1711772010 0.9578322600753594 -0.34190412426387756
1714622072 0.8324714889574948 -0.4438594435851417
1717472134 0.6799525127943423 -0.5204914244603165
1720322196 0.5176342407847325 -0.5469333267779662
1723172258 0.3614304733660805 -0.5693333222650823
1726022320 0.2154616857615937 -0.5429410320293707
1728872382 0.06077787519628487 -0.49169988149134225
1731722444 -0.045980751456024156 -0.44251321899362744
1734572506 -0.14706957741678092 -0.3724422682769245
1737422568 -0.22472183665884615 -0.30007066415933525
1740272630 -0.28727816644342136 -0.19680587965443186
1743122692 -0.335196151653982 -0.09779469398495011
1745972754 -0.34746506404781213 0.014493821170978442
1748822816 -0.3408831450872743 0.13941959821499392
1751672878 -0.30581615516017974 0.28517569629575473
1754522940 -0.2370769312555756 0.448365164786448
1757373002 -0.11562772122631369 0.6133410319756981
1760223064 0.07306115797151094 0.7757447079697574
1763073126 0.31247331298704945 0.9087484805625734
1765923188 0.6047772780239922 0.9557635993181798
1768773250 0.8797171760663275 0.9366367974315842
1771623312 1.1772184584934935 0.8106716489592798
1774473374 1.333753255180943 0.5692924269934102
1777323436 1.4047157804113188 0.2588788987821109
1780173498 1.384107547831086 -0.01892690487570381
1783023560 1.2715093559650015 -0.2552905944541309
1785873622 1.0776785346488968 -0.41662137172593733
1788723684 0.8874480800007926 -0.5620051480825415
1791573746 0.6913895422769569 -0.6336104923062827
1794423808 0.516784272668979 -0.7018288390124098
1797273870 0.35973044249475294 -0.7360944851356531
1800123932 0.23155436357208675 -0.7511805528026817
1802973994 0.12482796708380155 -0.7367993128775671
1805824056 0.04166806133569434 -0.7176265748866207
1808674118 -0.04852653645692057 -0.6650302281393348
1811524180 -0.09593121320274142 -0.6134728703737182
1814374242 -0.1431708423906124 -0.5365525880511748
1817224304 -0.17561768921046092 -0.4521192815970717
1820074366 -0.19349308346784982 -0.34848769323533013
