# HZ S RI R 50
700000000 0.06953413836320639 -0.6497879967106894
702850062 -0.05598078881649349 -0.662071447177367
705700124 -0.17734853373952308 -0.654109000645625
708550186 -0.2919586094655024 -0.6299009089390091
711400248 -0.3949645583057102 -0.5835044468952861
714250310 -0.48685674154785075 -0.518165936445504
717100372 -0.5642014738330748 -0.4303028782592585
719950434 -0.6225039183531816 -0.32146127913138595
722800496 -0.6537182744801804 -0.19129531731727883
725650558 -0.6613357638496985 -0.04554170261857512
728500620 -0.633957116018868 0.10660199957052718
731350682 -0.5843192658247031 0.21709621259573145
734200744 -0.5041494201203903 0.36084257904639516
737050806 -0.3932490949529396 0.4887445820790148
739900868 -0.26354364557887255 0.5846983204774462
742750930 -0.11825296747433292 0.6487927983934377
745600992 0.026775756464424993 0.6798096765274351
748451054 0.17907700027704584 0.6737795055597771
751301116 0.31206874321967853 0.6361125872156188
754151178 0.43776527810071014 0.5631723826661585
757001240 0.5330966016994468 0.46865432651533134
759851302 0.6091312875386591 0.3502133537638577
762701364 0.6580767802411278 0.21969707524997834
765551426 0.6818082002197802 0.08082417284854433
768401488 0.6810027867235038 -0.0518746677707177
771251550 0.6587601128871177 -0.18046271062809927
774101612 0.6122123382642175 -0.3056415904426345
776951674 0.5530093558945981 -0.41031989687690623
779801736 0.47680534215794546 -0.502290291125933
782651798 0.3900626712735682 -0.5750985336524144
785501860 0.28629483559106966 -0.6329962618750393
788351922 0.17658371214536517 -0.6644167241665304
791201984 0.05976734529139885 -0.6744365053766372
794052046 -0.06337995889612849 -0.6578968776529766
796902108 -0.18499605103454667 -0.6127697949934195
799752170 -0.299252180415893 -0.5473720605193533
802602232 -0.4003344882113326 -0.45670274257976534
805452294 -0.4839354496838499 -0.3480632358390184
808302356 -0.5461452869743326 -0.228310622515264
811152418 -0.581983456616435 -0.09749325047768688
814002480 -0.5914915316331205 0.0279665239876761
816852542 -0.5723923110925957 0.15547682183642766
819702604 -0.530465424186099 0.26699524563821425
822552666 -0.46151387004497435 0.37135601146750896
825402728 -0.37099677396076486 0.44905253688797137
828252790 -0.2632316048938877 0.5064145957587092
831102852 -0.14281202247809077 0.5398498050770363
833952914 -0.013709905883722564 0.5429645298666981
836802976 0.11168142295865374 0.5181514974934518
839653038 0.23042655052478775 0.46341482006295054
842503100 0.3308867513202527 0.3931124260833689
845353162 0.416689152165917 0.3012184270322801
848203224 0.4832150901305799 0.20046221302214004
851053286 0.5236219932787388 0.09205456794660644
853903348 0.5446250521664043 -0.014859858065058575
856753410 0.5440446130312878 -0.1165783273312005
859603472 0.5230053656477656 -0.21770555071622072
862453534 0.4841157016308628 -0.30534130824726285
865303596 0.42827983244968043 -0.38473850915245017
868153658 0.3568174147975097 -0.4463361753498026
871003720 0.275376626319857 -0.4910648131931813
873853782 0.18532572518927254 -0.5186089769673854
876703844 0.09330729227048021 -0.5296146366089631
879553906 0.0031799468518034788 -0.5216650562866467
882403968 -0.08422475028934291 -0.4972282127631416
885254030 -0.1609896160128585 -0.45432486325446403
888104092 -0.23163596523386165 -0.39959961129156
890954154 -0.29092873738693376 -0.33224387570678054
893804216 -0.3361456809403763 -0.2562522041075942
896654278 -0.36794129940376946 -0.170943714382705
899504340 -0.38365850398160645 -0.0834810903870374
902354402 -0.38042879757628023 0.002593314583019165
905204464 -0.3622531086197213 0.08594690523756443
908054526 -0.32857487332323954 0.1625863411043567
910904588 -0.28276017137363124 0.22922151591422185
913754650 -0.22380305847818757 0.2802198773337583
916604712 -0.1572254923691165 0.31700102341170283
919454774 -0.0837725911711233 0.3346823663527983
922304836 -0.008947042749623844 0.3360139296273903
925154898 0.0626663919097466 0.3205695422386048
928004960 0.12787388363203422 0.2914197970951803
930855022 0.19123714845984527 0.24517686146222709
933705084 0.23846660749827933 0.19104691525211656
936555146 0.2760606853824023 0.13201790881248035
939405208 0.2989239151822536 0.06822582867541616
942255270 0.31150380492866336 0.005465902676949939
945105332 0.31209129001926056 -0.05340145982567156
947955394 0.3005170299210066 -0.10931800880663269
950805456 0.279877515366034 -0.15809912581865893
953655518 0.2510475687466787 -0.20099653252973368
956505580 0.2203090492936826 -0.23278833636508206
959355642 0.17959851754402886 -0.2613834157756963
962205704 0.13537958311986945 -0.28382705395771757
965055766 0.08925063184504298 -0.3009923686134955
967905828 0.041386996261071965 -0.3107610141456317
970755890 -0.003030697060886977 -0.31523242584696154
973605952 -0.04849212511302651 -0.314450785549851
976456014 -0.08989334036385219 -0.30918036783749625
979306076 -0.1280907785989289 -0.2985126048391417
982156138 -0.1615122716950543 -0.2865657357731321
985006200 -0.18908496797951777 -0.26450107722338534
987856262 -0.21195095723094914 -0.24890285098248302
990706324 -0.22568601432501184 -0.22326869525452547
993556386 -0.22999877117968062 -0.1925645965729017
996406448 -0.23318441389350675 -0.16359926462908728
999256510 -0.2266072678133276 -0.130451517133569
1002106572 -0.21374757870763864 -0.09422564306644754
1004956634 -0.1994100058824803 -0.05438307895091709
1007806696 -0.18176229317675538 -0.013266687097489386
1010656758 -0.16006199899604126 0.025049555396017095
1013506820 -0.13780340985820536 0.06163181694946137
1016356882 -0.1109989931483099 0.10481776813281779
1019206944 -0.0761812442504396 0.14844175535286672
1022057006 -0.041146441759236686 0.18179194135840535
1024907068 -0.002323253465027471 0.2072169083635879
1027757130 0.03909841697937461 0.22272500108156704
1030607192 0.08649701214119755 0.23028728013780037
1033457254 0.13292640523720262 0.224056012528282
1036307316 0.17793171219048454 0.20398054322319265
1039157378 0.22334343378859212 0.17066770479718926
1042007440 0.2603060389985763 0.12567560127086527
1044857502 0.28738763391560096 0.07190142858285649
1047707564 0.3068169911550991 0.010990584089575893
1050557626 0.31763726882838444 -0.05946432234151603
1053407688 0.31649375112585904 -0.1332126105680453
1056257750 0.29920796378475073 -0.20377346204355423
1059107812 0.2730074485387696 -0.27423292489147477
1061957874 0.23311351348851078 -0.33534994206979174
1064807936 0.17265132164449745 -0.3917181607725947
1067657998 0.10192140778634315 -0.43119158531493235
1070508060 0.026321215997141958 -0.4561824774596161
1073358122 -0.06312827047916116 -0.4670971988940405
1076208184 -0.1587181896891776 -0.4547648542245345
1079058246 -0.246096852485668 -0.4268047636016405
1081908308 -0.33198908150158474 -0.38362217959083694
1084758370 -0.4134296777484957 -0.3227670093255378
1087608432 -0.47813733317677853 -0.24670301921018906
1090458494 -0.5271415615928283 -0.16308801803273482
1093308556 -0.5505421838308682 -0.07108663814389311
1096158618 -0.5585125950212101 0.023818682969265124
1099008680 -0.5451488106832161 0.1228360993641349
1101858742 -0.5087329666849605 0.20171666693669454
1104708804 -0.4546529291875993 0.2793587282528033
1107558866 -0.3851333564066071 0.3452769126640081
1110408928 -0.2989059041312871 0.3972163935807013
1113258990 -0.20234198369404 0.4316275545953637
1116109052 -0.10290346978374702 0.4436274481346019
1118959114 0.004590827266142453 0.4431173818265041
1121809176 0.11340584089855742 0.42135474184204924
1124659238 0.21089409598400516 0.3740193560797156
1127509300 0.2981681672900127 0.3163863992766711
1130359362 0.38255651203240676 0.23041741060723317
1133209424 0.4478627288611791 0.1276538866139574
1136059486 0.48765147981365686 0.012505950695337565
1138909548 0.5026529864726789 -0.11356083464836779
1141759610 0.4959376085739349 -0.25272785649413554
1144609672 0.4420149469379885 -0.399193970418558
1147459734 0.3615558969166899 -0.5176761913682875
1150309796 0.2654782564572846 -0.6186537812363158
1153159858 0.14212934047537965 -0.704631005599368
1156009920 0.010958848858112786 -0.7541400766145028
1158859982 -0.1216119450369895 -0.7607966245132345
1161710044 -0.25862202115381816 -0.7336962631164284
1164560106 -0.38164446841623284 -0.6659298904870294
1167410168 -0.4742301239949847 -0.5828200569190037
1170260230 -0.5448163272152268 -0.4725552678661554
1173110292 -0.5916657923963312 -0.34728047942888474
1175960354 -0.6092292171278135 -0.21181484617567217
1178810416 -0.598959497358811 -0.07339984880205275
1181660478 -0.5685168350254233 0.04775246386229493
1184510540 -0.5217961679753997 0.1575027692932373
1187360602 -0.4573700650801114 0.25699362031449835
1190210664 -0.38942989968020475 0.3379050513682438
1193060726 -0.3082065061673672 0.39837056234707474
1195910788 -0.2135112785750567 0.4378067223503061
1198760850 -0.12315829334578318 0.45733858519518356
1201610912 -0.029045806517054268 0.46083074031383675
1204460974 0.06286569941396934 0.43658894097473544
1207311036 0.15456170239070896 0.3915555555111826
1210161098 0.24284833787342994 0.3279082550806031
1213011160 0.31398819499561587 0.2513130369553203
1215861222 0.37132263038921215 0.1607881440538223
1218711284 0.41449199055078545 0.06072831439961014
1221561346 0.4326318166602276 -0.042975408508514584
1224411408 0.4312298350687626 -0.1381292203393079
1227261470 0.40200626115760335 -0.22548026967226603
1230111532 0.35474639807668995 -0.294931364440551
1232961594 0.28349581806615154 -0.34959820487520443
1235811656 0.19851206727015 -0.38007123199437876
1238661718 0.10027696894034321 -0.38744199264897816
1241511780 -0.0017924097843234647 -0.372632709253927
1244361842 -0.09357007417580863 -0.33523018322140363
1247211904 -0.18759595520685068 -0.2822577796425633
1250061966 -0.2617593441477455 -0.22446622890834209
1252912028 -0.32902961810785825 -0.1633332880643749
1255762090 -0.3825767225862497 -0.1034820116450458
1258612152 -0.4208142763525557 -0.04544610022694942
1261462214 -0.4399106762190848 0.011563715445787128
1264312276 -0.45088703049206696 0.05160260831152497
1267162338 -0.4436029063861262 0.08184661187627289
1270012400 -0.4290093291179984 0.10193524104970984
1272862462 -0.4048391100197867 0.11763672913106742
1275712524 -0.3486260072185572 0.1335027031715444
1278562586 -0.31933099265348824 0.1332689186326861
1281412648 -0.285065510746007 0.12675150783404568
1284262710 -0.23911658540224062 0.11836037342419274
1287112772 -0.20801605984613747 0.11078090967412271
1289962834 -0.18001369730097164 0.10693896156359829
1292812896 -0.1542350748958532 0.10579572900419305
1295662958 -0.1330050493911952 0.10953385468538959
1298513020 -0.117391688405508 0.11518984655309246
1301363082 -0.10510882166666541 0.13530411999024675
1304213144 -0.09585400092227557 0.1414501649980186
1307063206 -0.08610196860622307 0.15799625562419337
1309913268 -0.07871399322753161 0.172923537857272
1312763330 -0.07067405562502398 0.17600569723568604
1315613392 -0.05412862817949068 0.17620516552365922
1318463454 -0.04101742199173645 0.16896807385231127
1321313516 -0.015705322858427212 0.14214396500310722
1324163578 0.008279313849960017 0.10751012371882247
1327013640 0.04343197907124304 0.06521571892838283
1329863702 0.07801051297624173 0.009936749187366554
1332713764 0.1002998077651073 -0.049807136378509406
1335563826 0.12971625702916545 -0.12450162923020512
1338413888 0.14641670524393305 -0.19797601360466424
1341263950 0.15493203499482594 -0.2641008308854268
1344114012 0.14757365910614734 -0.32792712532588064
1346964074 0.1361618230000616 -0.3772597287003285
1349814136 0.08812649039501977 -0.4136329768888515
1352664198 0.02456821173570126 -0.4181744843644432
1355514260 -0.04926079864446861 -0.4131530187972173
1358364322 -0.14433571356023175 -0.37985425483677693
1361214384 -0.22579163322238338 -0.32960613686567175
1364064446 -0.3118392131505417 -0.26041969979393503
1366914508 -0.402154140690649 -0.1751276720296409
1369764570 -0.47432666835254905 -0.08955512354855791
1372614632 -0.5221829833454363 0.0013107990436011382
1375464694 -0.5624360760321736 0.08144164183834128
1378314756 -0.5787402910191259 0.1680166729290112
1381164818 -0.5791293630053234 0.24503633897287252
1384014880 -0.5549308169929928 0.3154970742563516
1386864942 -0.531007850885 0.3743468833912669
1389715004 -0.4725678071209563 0.4290307854754728
1392565066 -0.4065170399075157 0.4694965637418624
1395415128 -0.31803147532088966 0.5073983055444569
1398265190 -0.21042160123152617 0.5454797534424608
1401115252 -0.0882594353130131 0.5664433343014197
1403965314 0.030433356193125316 0.5702704723924203
1406815376 0.16412610463777788 0.562218804235893
1409665438 0.29578793931766867 0.5302794582084551
1412515500 0.4433751504137313 0.47868354809853725
1415365562 0.5510808667944147 0.41130519415835365
1418215624 0.6395136362899412 0.3016651657424641
1421065686 0.7001402333094912 0.15332086654598986
1423915748 0.7088277618064562 -0.014314959658794521
1426765810 0.6444032583111131 -0.1890165177259323
1429615872 0.5054919464753133 -0.3579062324046739
1432465934 0.31589796351470206 -0.49886277571709325
1435315996 0.10542267477643845 -0.5956454458759051
1438166058 -0.11728304423946445 -0.6137139362816871
1441016120 -0.3209379951233973 -0.5924085327911653
1443866182 -0.4982002798770717 -0.545886276355143
1446716244 -0.6351066962460402 -0.46815726700755744
1449566306 -0.71183675996006 -0.38458441057505344
1452416368 -0.7637658334223072 -0.28383856703376215
1455266430 -0.7777696539812623 -0.18795425980287941
1458116492 -0.7678863774762485 -0.08747916506467228
1460966554 -0.7368643285320388 0.012911531894901209
1463816616 -0.6884904957645672 0.1260603860123061
1466666678 -0.6225990766001168 0.2520306000506611
1469516740 -0.5510388308025511 0.377957483191527
1472366802 -0.4733657919600742 0.5157379450473193
1475216864 -0.39863394946691766 0.6742922910952787
1478066926 -0.32891784107335714 0.8279221294507847
1480916988 -0.26985954005574136 0.9588292512539972
1483767050 -0.19302712313843023 1.1080977298493078
1486617112 -0.10722145768571609 1.2416079514484242
1489467174 0.016627897382187718 1.3043611897269052
1492317236 0.14207166484809214 1.3753879701197806
1495167298 0.26699421499637094 1.3810454402025092
1498017360 0.47703130312111114 1.271368629558111
1500867422 0.6896124689839978 1.0404598205915614
1503717484 0.8499833007513367 0.7564845193437645
1506567546 0.9238347070474104 0.39636551941022796
1509417608 0.8808751857556957 0.031587863625083354
1512267670 0.7135899329009284 -0.290311982585047
1515117732 0.5148081825006463 -0.48583572900757827
1517967794 0.31781415265009333 -0.5992368096859182
1520817856 0.135504338253783 -0.6144959394716362
1523667918 0.004661010979911518 -0.5952670741789027
1526517980 -0.10169529961482772 -0.5177941352224826
1529368042 -0.18494794360411762 -0.4047245366104493
1532218104 -0.24189764172432604 -0.27609291652081847
1535068166 -0.28023503157837226 -0.1372106826339474
1537918228 -0.31800032479748636 -0.00647599949464947
1540768290 -0.34820437105761587 0.1168379571129913
1543618352 -0.38345126815722325 0.24152082748074863
1546468414 -0.3928686420983612 0.33977927809463776
1549318476 -0.40999487537069074 0.44241334849089414
1552168538 -0.4230758971649896 0.4978139509860487
1555018600 -0.41894129936766633 0.5568626815971717
1557868662 -0.40664463231034104 0.5963670061784365
1560718724 -0.38189289338329463 0.6197998376039034
1563568786 -0.2216807327785162 0.6108404064240317
1566418848 -0.18086087532774348 0.5829733233062482
1569268910 -0.09623402456029313 0.5535151863091289
1572118972 -0.03629445484211189 0.5023340634140786
1574969034 0.038484782894265004 0.45070058483017417
1577819096 0.1176318198180989 0.365135691330247
1580669158 0.19010946891579938 0.2995722231807671
1583519220 0.26171905734330797 0.2383655580135895
1586369282 0.31757224235291737 0.16734531600401328
1589219344 0.35229409283857654 0.1133092176007311
1592069406 0.3780813626555963 0.07529723796520489
1594919468 0.38884714150458316 0.05369411463486726
1597769530 0.39668619152689105 0.04301432728124798
1600619592 0.44481457746282016 0.06533106608395868
1603469654 0.4351832930243373 0.09360146670233274
1606319716 0.414815205902822 0.140503570303197
1609169778 0.40773204133310387 0.17145723682509506
1612019840 0.4086828233499015 0.20580051652257333
1614869902 0.38568487913020344 0.2184890688425076
1617719964 0.40082225712122416 0.2253695924338285
1620570026 0.38912447613969986 0.1963938479541114
1623420088 0.38296072110293194 0.14458004079136563
1626270150 0.36262885595655897 0.07801427895859608
1629120212 0.3358273073323204 0.01129163702355948
1631970274 0.30505406778155236 -0.05761000661742619
1634820336 0.25461375629720695 -0.12671332613173816
1637670398 0.21741970146570003 -0.18561874704366732
1640520460 0.15402049497634399 -0.20933636144502374
1643370522 0.12275381377031805 -0.2217116860452976
1646220584 0.07842143131685061 -0.21309966487781962
1649070646 0.045160531390403796 -0.1715594186882237
1651920708 0.026695819175125826 -0.11802367386810979
1654770770 0.006512017887188689 -0.049850573126525626
1657620832 -0.023354763500622586 0.0339858534206247
1660470894 -0.043287808971487436 0.12129274793075176
1663320956 -0.07160736363269929 0.22043818868331627
1666171018 -0.10128997942234053 0.30573296193376515
1669021080 -0.1018142122845107 0.40044341899171043
1671871142 -0.10203014931164504 0.49258389696252125
1674721204 -0.09933087351546811 0.579167663833741
1677571266 -0.06686443359639276 0.6635522005642603
1680421328 -0.012771636386953316 0.743279329755113
1683271390 0.07415392388433342 0.8112807779630535
1686121452 0.18409481606726225 0.8502338476946412
1688971514 0.3374637371347987 0.8663443793163114
1691821576 0.5426556985804178 0.8437454226105522
1694671638 0.743549921265155 0.7734107156839702
1697521700 0.9318140614269359 0.6497251581946993
1700371762 1.058626487834823 0.4502554110797242
1703221824 1.1552932901998634 0.2445545901385495
1706071886 1.1569126220136516 -0.002703197586139426
1708921948 1.0795964480543896 -0.17925158538514505
1711772010 0.9679472747890919 -0.3500393410035019
1714622072 0.8455825686097812 -0.45729352798030776
1717472134 0.6754256610394935 -0.531321965220679
1720322196 0.5165916661740094 -0.560862934765432
1723172258 0.355162149784058 -0.5729533080840656
1726022320 0.20025781611264223 -0.5479142328055628
1728872382 0.061983619946353645 -0.4965730750515434
1731722444 -0.05268512702658448 -0.43945229582877915
1734572506 -0.15604166220568985 -0.36905161580434553
1737422568 -0.23455383646169498 -0.291968013401638
1740272630 -0.2916081184983603 -0.1853761131694828
1743122692 -0.3306521662703878 -0.09289291234793015
1745972754 -0.34443582098015035 0.025070744101468777
1748822816 -0.32913762929833174 0.14391700358196097
1751672878 -0.2992193114509231 0.28995579746543
1754522940 -0.2241352651389448 0.4437771240503432
1757373002 -0.102736318386026 0.604131962537418
1760223064 0.07133275583329296 0.7622810668705944
1763073126 0.31054676321527486 0.8868114295790164
1765923188 0.5829142501710664 0.9376836503539606
1768773250 0.8673221072829057 0.9248918660951693
1771623312 1.1552989685847732 0.7839295957992521
1774473374 1.3140100011528122 0.5503458096377636
1777323436 1.4044200187589755 0.2771964028818109
1780173498 1.3847249664272856 -0.003758624901623799
1783023560 1.2732628596691145 -0.25039782803866933
1785873622 1.088857785696483 -0.4117104794645209
1788723684 0.8961867918054575 -0.5628713943293879
1791573746 0.6893640681319796 -0.6366239213406774
1794423808 0.5169328469717273 -0.7079204791123905
1797273870 0.36098230871454406 -0.7395438431494942
1800123932 0.23083223842668785 -0.754728001739155
1802973994 0.12492307434827875 -0.738362383686032
1805824056 0.03904235396566836 -0.7146813228459399
1808674118 -0.050394736441028286 -0.6688374358724393
1811524180 -0.1029969739658764 -0.6129223158003656
1814374242 -0.14812964571172596 -0.5344982625108475
1817224304 -0.18438994397991287 -0.44672868045399056
1820074366 -0.19714361128004623 -0.34480904278184094
