# HZ S RI R 50
700000000 0.062492956352993685 -0.6469460668085512
702850062 -0.06402233198388725 -0.6577047991329517
705700124 -0.18488116011424974 -0.6485070217769516
708550186 -0.298536417149264 -0.6229119045498575
711400248 -0.4004367819101069 -0.577362849556713
714250310 -0.49056619358019604 -0.5117035623034191
717100372 -0.5623344577254151 -0.42552765642160867
719950434 -0.6170516743893125 -0.3154230882555521
722800496 -0.6493329347184897 -0.18575931700728265
725650558 -0.6544985479299487 -0.041055910084597226
728500620 -0.6257970857278357 0.10827363151301794
731350682 -0.5747184520819392 0.21866927066900335
734200744 -0.4934999398981532 0.36123501458646035
737050806 -0.3833938062246622 0.48661667739670494
739900868 -0.2552060281868329 0.5823236496222499
742750930 -0.1095780912603844 0.6465609259150762
745600992 0.03580635355559841 0.6767129494232875
748451054 0.1814202416935494 0.6718395471663916
751301116 0.31648861874476536 0.6324280330334083
754151178 0.43799083292379665 0.5607424679908312
757001240 0.53477095427331 0.4640920582194327
759851302 0.607253759974167 0.3449925849952513
762701364 0.6538553626155347 0.21549710927485777
765551426 0.6764701266895708 0.07810038399339948
768401488 0.672417922178718 -0.05712408262023859
771251550 0.6492633538112295 -0.18911524726658727
774101612 0.6045665117104378 -0.3105752068917201
776951674 0.5422645908038974 -0.416131775910831
779801736 0.4673238152732127 -0.5066885551641191
782651798 0.380976225870767 -0.5780140095334597
785501860 0.2789986568303953 -0.6345469899198486
788351922 0.16938289223562897 -0.6640506651971608
791201984 0.05521865696472134 -0.6715963376237134
794052046 -0.06651368661896394 -0.6534904781149851
796902108 -0.18536557291644587 -0.6062565265102211
799752170 -0.2977037214776651 -0.5399015629743517
802602232 -0.39796259362894243 -0.44727059545399234
805452294 -0.4811695648473745 -0.3379138567520296
808302356 -0.5415954163304919 -0.21885629720650307
811152418 -0.5771340154313653 -0.08990200442851037
814002480 -0.586653517412958 0.03686869000974952
816852542 -0.5683158395782576 0.16025749953048937
819702604 -0.5273705352371998 0.2710276759207247
822552666 -0.45916691687478484 0.37154775834315845
825402728 -0.3688677977422526 0.4513218050227594
828252790 -0.2620467389985719 0.5061128934033711
831102852 -0.14191248732571618 0.5374840231902085
833952914 -0.012569121816384315 0.5391128016959199
836802976 0.11330464573035857 0.5125272148822868
839653038 0.23094734710902398 0.458275254145431
842503100 0.3346854163187119 0.3831894640702838
845353162 0.4190262955217679 0.29104523192639287
848203224 0.4842456735344639 0.18935343567020518
851053286 0.5225136760255932 0.08139891043500412
853903348 0.544139415048347 -0.024288817231649627
856753410 0.5429834670822756 -0.1256214783987189
859603472 0.5195451881634647 -0.2221957331422334
862453534 0.48072062907881313 -0.30690959264447987
865303596 0.4238126093051235 -0.3814960442368858
868153658 0.3506550137354241 -0.4438060317224433
871003720 0.26944263415501535 -0.48539879571567945
873853782 0.18083520068073178 -0.5115221604194602
876703844 0.08876185666528115 -0.521427272586457
879553906 -0.0032423921207059524 -0.5122295433994116
882403968 -0.08924619645484907 -0.48771603866451346
885254030 -0.16480955607596198 -0.4472019446077285
888104092 -0.23546871538643976 -0.39310250234381927
890954154 -0.2926591709798912 -0.32921435556994166
893804216 -0.3344641961263455 -0.2534777242044015
896654278 -0.36973908936478517 -0.1690501652235938
899504340 -0.3833192807101004 -0.08316796779134702
902354402 -0.38053108446514117 0.002348168612744901
905204464 -0.3599974971509072 0.08374431446519068
908054526 -0.32451866874881236 0.16191002901743315
910904588 -0.27772186498241913 0.22671235455292935
913754650 -0.2174215149758824 0.2783148962426559
916604712 -0.1500465385911563 0.31531851434913827
919454774 -0.07458711004057728 0.3341665774852438
922304836 -0.0006090706525387324 0.3355241240737335
925154898 0.07009285523508953 0.3192153576647446
928004960 0.1368506914678289 0.2901432063909681
930855022 0.19622276249960455 0.24304035507750818
933705084 0.24154763887873978 0.18997447895022931
936555146 0.276341731422803 0.12978321481737334
939405208 0.29611766407907697 0.06578260276844389
942255270 0.30633771579785823 0.004106159518285205
945105332 0.30454851407016775 -0.057325726472955515
947955394 0.29165575523919113 -0.11023536484744331
950805456 0.2699893096277966 -0.15887577426509092
953655518 0.24263582465317265 -0.19952348956840496
956505580 0.2109507906166011 -0.23415420305650253
959355642 0.17283107116328184 -0.26225486416922267
962205704 0.13089626565896423 -0.2829168299812773
965055766 0.0859014030712482 -0.30036227640017943
967905828 0.04048706454300545 -0.31048172991870737
970755890 -0.0036307623855049618 -0.314772680193713
973605952 -0.04765264785171091 -0.31420796029494225
976456014 -0.08846607894928293 -0.30820673856144754
979306076 -0.1267987053431428 -0.29850242635314234
982156138 -0.16045249696482108 -0.2855484962093396
985006200 -0.18789036821038682 -0.2633476372733646
987856262 -0.21040753154351413 -0.24598092250121098
990706324 -0.2248340137490342 -0.2198479988911744
993556386 -0.23188964589640176 -0.1879261488264222
996406448 -0.23298177398925038 -0.15670114255874776
999256510 -0.2276603356067397 -0.12304180579416457
1002106572 -0.21417376900353224 -0.08799539881494021
1004956634 -0.1988460046001923 -0.047599544836483036
1007806696 -0.17977617897029502 -0.010364447868006683
1010656758 -0.1586495132660035 0.02747096889631599
1013506820 -0.13511633545431753 0.062018397230830406
1016356882 -0.10898973543020234 0.10255782027317231
1019206944 -0.07459975345871546 0.14227397421951588
1022057006 -0.03896972250115394 0.17619564084205044
1024907068 0.0001172281892529393 0.20192293934596298
1027757130 0.03918516060855032 0.21575957420456912
1030607192 0.08702955221182243 0.224295391749462
1033457254 0.13249506106827402 0.21947139769704993
1036307316 0.17976474856374075 0.19980629690538212
1039157378 0.22178218653382611 0.1668329313016502
1042007440 0.260890666373354 0.1227739547855127
1044857502 0.28836670510586065 0.07191107134434715
1047707564 0.30751568190064804 0.011719503502219408
1050557626 0.3168166156821883 -0.057789009824267955
1053407688 0.3153525787246797 -0.13287662160251953
1056257750 0.29775112750631044 -0.20428686803386048
1059107812 0.26820455989961123 -0.2748656909678582
1061957874 0.2243692781648861 -0.33800405561332786
1064807936 0.16810481700606428 -0.38967549203066576
1067657998 0.09491864408107249 -0.43118047190831543
1070508060 0.01772800565363403 -0.4543695788546621
1073358122 -0.07290485783960621 -0.4617552657628332
1076208184 -0.16699790978988394 -0.4489373629954667
1079058246 -0.25174974086058677 -0.42087903264103155
1081908308 -0.33456657974368115 -0.3741076779617324
1084758370 -0.41254856451330996 -0.31401660355582295
1087608432 -0.4739111581499994 -0.23795966729741336
1090458494 -0.5192956121518568 -0.15043834352979138
1093308556 -0.5413427427285101 -0.058783469052543946
1096158618 -0.5474995978583368 0.03121491551318868
1099008680 -0.5330709552412611 0.12212916797619533
1101858742 -0.49687737945800514 0.20423002406133656
1104708804 -0.4475627700553245 0.27783569598225477
1107558866 -0.3776310224778667 0.3435925446215882
1110408928 -0.2934055688637676 0.3953372748191666
1113258990 -0.19883475407218032 0.4268390783054573
1116109052 -0.1020025015377524 0.4392196267386045
1118959114 0.00423326186805469 0.43597090649328946
1121809176 0.11055238437525021 0.41626285123297746
1124659238 0.20704288945666668 0.36948335154554995
1127509300 0.29785309118569175 0.30953350410054425
1130359362 0.38075979848570757 0.22606158412773275
1133209424 0.4462607837842477 0.12118743920095389
1136059486 0.48643583949272107 0.008654471174998422
1138909548 0.5061092220175255 -0.12283024029337976
1141759610 0.4929686881651862 -0.25715956774058374
1144609672 0.43871436522298163 -0.4013352452586942
1147459734 0.35784154824228886 -0.5224796048896521
1150309796 0.26020579138580346 -0.6189440737549429
1153159858 0.13765910900983108 -0.70127383419985
1156009920 -0.0033531586667489796 -0.7464051262416659
1158859982 -0.1362689145879976 -0.7467580324051639
1161710044 -0.2687700434060068 -0.7172922069171755
1164560106 -0.3909852785328466 -0.6516170432483384
1167410168 -0.4796933570610797 -0.5645213382525258
1170260230 -0.5440207446886154 -0.4520357399039628
1173110292 -0.5922743630202552 -0.33067662291304206
1175960354 -0.6027818519784404 -0.19944504964424492
1178810416 -0.5917177912895776 -0.06655492153956072
1181660478 -0.5602213801904488 0.05257323073735551
1184510540 -0.5110602721629582 0.1572577835167023
1187360602 -0.447855966576341 0.25334820472917935
1190210664 -0.37987758365283736 0.33171527913162596
1193060726 -0.29668861666491175 0.3920278893367894
1195910788 -0.20625058369059715 0.430822845020793
1198760850 -0.1167072679208001 0.44885571783405676
1201610912 -0.023436404198303912 0.4529502083363848
1204460974 0.0671726136680155 0.43119263737036684
1207311036 0.16098220730786125 0.3881804648267885
1210161098 0.2453699177374738 0.32755658321910824
1213011160 0.31279319803881234 0.25282141169368516
1215861222 0.3708316391383165 0.16398765060643547
1218711284 0.4140697984009362 0.06533243547421366
1221561346 0.4290851097127696 -0.037396842889317945
1224411408 0.42141776091320626 -0.1327656390701049
1227261470 0.39880367618501134 -0.22657308640195986
1230111532 0.34857034001350895 -0.2939572049877572
1232961594 0.27070259876018554 -0.35254566246653546
1235811656 0.18790674335887733 -0.3806431778036072
1238661718 0.09133116328789408 -0.3888266434358436
1241511780 -0.01561069372514617 -0.37397809040860125
1244361842 -0.106988619493958 -0.33464921534927716
1247211904 -0.19438246511728477 -0.2814495120054417
1250061966 -0.26906391376356004 -0.22179162990445808
1252912028 -0.3268885229899905 -0.1593636987009703
1255762090 -0.3777349146969695 -0.09611846662178787
1258612152 -0.4127375929329386 -0.037976563803605826
1261462214 -0.429486570997315 0.013239311766500254
1264312276 -0.43544267096954414 0.052703261086832306
1267162338 -0.42482272440803925 0.08415817291339392
1270012400 -0.41505685077044513 0.10573830185235701
1272862462 -0.3893988689963022 0.11775477642903671
1275712524 -0.3385621708863022 0.13143774438339134
1278562586 -0.3130594578395582 0.13367057909858984
1281412648 -0.2791837267083164 0.12696353163888982
1284262710 -0.2434824462377351 0.119091567060467
1287112772 -0.2137946631938249 0.11203272517447804
1289962834 -0.18545236247575492 0.11263186347791675
1292812896 -0.16296544321490175 0.11080028046390139
1295662958 -0.13622784250239334 0.11639311019927753
1298513020 -0.12300854756052708 0.12231568737285585
1301363082 -0.10571127459822054 0.1372134245484626
1304213144 -0.09367140981149762 0.14028916537933825
1307063206 -0.07815839647090057 0.1562433806652075
1309913268 -0.07137894705926869 0.1634868355708191
1312763330 -0.060038131203332 0.165802343744611
1315613392 -0.04349590832939347 0.16312614486463445
1318463454 -0.03452899047580636 0.15502762766136205
1321313516 -0.012402482510857066 0.13286268102688734
1324163578 0.016821777949177264 0.09959426909368725
1327013640 0.046043009616253246 0.06060699311536296
1329863702 0.0744839914171854 0.016303792389883946
1332713764 0.09602004133920482 -0.04478859670334079
1335563826 0.12239874145627924 -0.11252566592616202
1338413888 0.1429279187833673 -0.1840800141614796
1341263950 0.15091461419313668 -0.24704420492480145
1344114012 0.1429926239650087 -0.31037313415045853
1346964074 0.12901935251232968 -0.3608553312148123
1349814136 0.0856247707143528 -0.3984801498031945
1352664198 0.02656512103328058 -0.4100992988495635
1355514260 -0.05495662985882464 -0.4099216305247077
1358364322 -0.1489747628920331 -0.3843054218713417
1361214384 -0.22931468891206438 -0.3356969991987502
1364064446 -0.31563112905919793 -0.2639643764417211
1366914508 -0.40669550789699277 -0.17719515519917675
1369764570 -0.4731357916986054 -0.08334389567715891
1372614632 -0.5238705870124106 -0.005557961605088771
1375464694 -0.5568980120239441 0.08682776052382708
1378314756 -0.5706306208482019 0.17328866007242394
1381164818 -0.5677859548178721 0.25266518192802917
1384014880 -0.5448500219988438 0.31780925918514946
1386864942 -0.5132136011726545 0.3801110498595882
1389715004 -0.45896849465251793 0.4300850809650616
1392565066 -0.38811323672360426 0.4746103240932048
1395415128 -0.3008449636890549 0.5070631775239859
1398265190 -0.19812015605943012 0.5446603931546776
1401115252 -0.07767102796412831 0.5592206057027562
1403965314 0.035727560624685524 0.5647005599438438
1406815376 0.16690336046704923 0.5456657944075609
1409665438 0.30076968441886404 0.5119991256390313
1412515500 0.4217352556973704 0.46661923861641463
1415365562 0.5430708357659322 0.3948480143634618
1418215624 0.6234642826762055 0.29339487599914044
1421065686 0.6730110303021493 0.15269684726930785
1423915748 0.6920223987302623 -0.01083346945015404
1426765810 0.6340835872115804 -0.19317963111697847
1429615872 0.5041088383832605 -0.35760559925600766
1432465934 0.3163917944122309 -0.502547418345858
1435315996 0.1060663433487433 -0.5986497596606545
1438166058 -0.11338529230196118 -0.6207681370531262
1441016120 -0.3125553803246693 -0.5952488033758931
1443866182 -0.4911818274775547 -0.5443712865496367
1446716244 -0.6247851608614671 -0.47574921729309333
1449566306 -0.7032057865816944 -0.37843248767999105
1452416368 -0.754513632443419 -0.2841673527038719
1455266430 -0.7700646713011209 -0.17766330381685733
1458116492 -0.7634248048101054 -0.07272148891641965
1460966554 -0.7306846174749653 0.030960201365904345
1463816616 -0.6841004981568226 0.14099643844505905
1466666678 -0.6152764151991449 0.2660490502925895
1469516740 -0.5428822025090492 0.38847344459049155
1472366802 -0.4663360239818708 0.522905942576949
1475216864 -0.3868151921126229 0.6786179323715237
1478066926 -0.31165607855796906 0.8206950772877886
1480916988 -0.24343831921125883 0.9539590082053717
1483767050 -0.16211943190103845 1.1032755722211662
1486617112 -0.06986782194446428 1.2234604064040295
1489467174 0.054449832556846954 1.2822225662733902
1492317236 0.1741464782298821 1.3338935260783773
1495167298 0.30033949344885896 1.3509412558928469
1498017360 0.507823395932276 1.2389257212524336
1500867422 0.6933517584902382 1.0095474900823762
1503717484 0.8497787251163806 0.7370703435757923
1506567546 0.9174653974254806 0.39695693346123806
1509417608 0.8552591235737511 0.03424978840383592
1512267670 0.7170472345655834 -0.24883474155230778
1515117732 0.5229716007891712 -0.4708798676355373
1517967794 0.3258575853143833 -0.5787191120540713
1520817856 0.1461670661237826 -0.6061303311840294
1523667918 0.013660079473384297 -0.5789567541636118
1526517980 -0.10009233322146158 -0.5114513807797252
1529368042 -0.18754173629963228 -0.4010209420295895
1532218104 -0.24620106440776204 -0.27783080674405897
1535068166 -0.29219550622403967 -0.1390854441261172
1537918228 -0.3234351567085756 -0.005856589805132332
1540768290 -0.35755748514380875 0.12169572159940842
1543618352 -0.38826616801847547 0.23639134383917335
1546468414 -0.3915821217640571 0.33371514118464896
1549318476 -0.4054547948019686 0.43845589805856977
1552168538 -0.41160514455194935 0.5010502794233068
1555018600 -0.40166075903008 0.5648686403581606
1557868662 -0.38631723505836296 0.6000561675796265
1560718724 -0.35306086606409076 0.6286107990630718
1563568786 -0.19829400496400817 0.604089470956332
1566418848 -0.15858101534708033 0.5812517559527771
1569268910 -0.08170541740833868 0.5438385620540029
1572118972 -0.026669430913989697 0.4905571871966552
1574969034 0.04042717738114305 0.43697259799659827
1577819096 0.10948688707486937 0.3624120725887399
1580669158 0.1808662660847499 0.29571025898155634
1583519220 0.2542794624835455 0.22961550901098562
1586369282 0.2993349429121076 0.15976892878411778
1589219344 0.33645584341695167 0.11515378422098056
1592069406 0.37157855383702404 0.07567616381302487
1594919468 0.3866300775490941 0.051657713090497145
1597769530 0.3876382346289835 0.03423791701917502
1600619592 0.4464875948840387 0.057871844537589465
1603469654 0.44477739231532004 0.0794271810039015
1606319716 0.4203965750554932 0.11731777960589129
1609169778 0.41191617638171635 0.15198304743949106
1612019840 0.4163097377665599 0.1784480515773623
1614869902 0.39508761521811303 0.1903281607762803
1617719964 0.4006746992372859 0.19561860709333287
1620570026 0.3848471054168233 0.1849235071809343
1623420088 0.3832882189936706 0.14554560691211818
1626270150 0.3553397724997802 0.07952263103684243
1629120212 0.32614116956131095 0.019530853892133472
1631970274 0.29943710654918443 -0.048971936261890364
1634820336 0.2526787101696049 -0.10192883244307037
1637670398 0.2136706689995247 -0.16125361246792896
1640520460 0.1626062699243642 -0.19037902142830945
1643370522 0.11625235594297627 -0.21143946756887946
1646220584 0.08257346081194665 -0.20097490323905068
1649070646 0.05069150748353307 -0.1765438732630787
1651920708 0.025365976423094076 -0.12357883278233857
1654770770 0.0010967296774486415 -0.056001444684837795
1657620832 -0.029021826622737765 0.014659304009552513
1660470894 -0.04860470332379372 0.10849190932492754
1663320956 -0.07165183164661611 0.19893387381891775
1666171018 -0.09305171758011448 0.2976736238691072
1669021080 -0.10380210834400103 0.39393694478040814
1671871142 -0.09917161620737276 0.4874920606019892
1674721204 -0.08425878222143125 0.580115295746597
1677571266 -0.04822004226214154 0.6717026559336537
1680421328 0.00480537272268746 0.7562263210218353
1683271390 0.09731660927205774 0.817505643681468
1686121452 0.21107824376955042 0.8663019862985071
1688971514 0.36181074620606396 0.8633793640880219
1691821576 0.5520165796063733 0.8372769649418776
1694671638 0.7552793364365131 0.7537082142053021
1697521700 0.9139952719626895 0.6206224835578328
1700371762 1.0332769638629253 0.43747971374552275
1703221824 1.118319771836562 0.22892690416291095
1706071886 1.1102317574492464 -0.011459293182237085
1708921948 1.0282057683923749 -0.17960828064078252
1711772010 0.921043144763066 -0.33504655371173514
1714622072 0.8020677605108981 -0.4488683740395897
1717472134 0.6534147825644567 -0.51738020109113
1720322196 0.4967469086528776 -0.5519684233675157
1723172258 0.34435227531704893 -0.5709551341504863
1726022320 0.19327624344942437 -0.5426279050510647
1728872382 0.06440591948121382 -0.49740278266058213
1731722444 -0.044427220017668 -0.4409608168871709
1734572506 -0.14611357311494605 -0.36833399370046804
1737422568 -0.22087608707685313 -0.2994327438521724
1740272630 -0.2811144778332407 -0.18662598479283204
1743122692 -0.3177975869384763 -0.08823397764993217
1745972754 -0.33406155399103893 0.03158292188713528
1748822816 -0.3217736258515591 0.1515031450584836
1751672878 -0.2921696517787337 0.3007130442855023
1754522940 -0.21628547550565425 0.45610311438836926
1757373002 -0.1040054632251097 0.616882981015188
1760223064 0.07510178629336821 0.7702286189859479
1763073126 0.30634555058611806 0.8930018904370903
1765923188 0.579624686445986 0.9345880940901246
1768773250 0.8514382611465581 0.9102138382507111
1771623312 1.1345207521335905 0.7546340866028762
1774473374 1.283218592616346 0.5234801520143241
1777323436 1.344665791194517 0.2595999870755116
1780173498 1.3320241183175685 -0.04627328826173599
1783023560 1.2254355907834487 -0.27068138524067914
1785873622 1.0432073843669705 -0.42204903663878957
1788723684 0.8612072432492212 -0.5637083070639479
1791573746 0.6777028677228821 -0.6377020073559708
1794423808 0.5052839295162834 -0.7001663641535579
1797273870 0.35469873394700474 -0.7313392430172788
1800123932 0.22756795749874417 -0.7397772285077899
1802973994 0.1247659127817707 -0.7308348921615887
1805824056 0.043608496746540514 -0.7055814307034286
1808674118 -0.0473834610917088 -0.6460473692165222
1811524180 -0.0957116991245268 -0.5964593658073566
1814374242 -0.14509076186455633 -0.51997738701404
1817224304 -0.18987840855039492 -0.43603830506904007
