# HZ S RI R 50
700000000 0.06974202422799311 -0.6574795484431635
702850062 -0.05424260274343764 -0.6693781719538648
705700124 -0.17432310597627568 -0.6618317904148127
708550186 -0.28528411800919196 -0.6367639277318756
711400248 -0.3870079428981886 -0.5902768790468806
714250310 -0.4781179477554951 -0.5240499146323097
717100372 -0.5551686350947348 -0.4333596851730673
719950434 -0.6107036286641895 -0.32206062474146013
722800496 -0.6471376876354251 -0.1897230821494933
725650558 -0.6521205131483976 -0.044149560967570535
728500620 -0.6286637557113122 0.10759137205868902
731350682 -0.5811785036231719 0.2200857596616571
734200744 -0.5067741022736006 0.36558117804942913
737050806 -0.3998816608892751 0.49371891660579753
739900868 -0.2740521219962756 0.5931109955456707
742750930 -0.13080557210303864 0.655844515846742
745600992 0.013323595922914077 0.6858401668151511
748451054 0.16160436596901373 0.6794163990509227
751301116 0.29944118034123846 0.6400924230326058
754151178 0.42534139165756496 0.5685673278030277
757001240 0.5256060409087997 0.46844914332461046
759851302 0.6038939444564952 0.34884321744187563
762701364 0.6564117732020641 0.2153554258146968
765551426 0.6813919643202598 0.07620121875648292
768401488 0.6837423989899517 -0.05464327510629267
771251550 0.6635081756920611 -0.18759001316076857
774101612 0.6203023712737769 -0.309164463606384
776951674 0.5614709827941684 -0.41266064509247724
779801736 0.4870558831172224 -0.5047747448251412
782651798 0.39837963872273996 -0.5760767717464268
785501860 0.29638823272391107 -0.6302465050521127
788351922 0.18279228307820208 -0.6607010531528366
791201984 0.06590292627990717 -0.6696469978259589
794052046 -0.05765594654924004 -0.6503038534399199
796902108 -0.1860259219325058 -0.6065422177764469
799752170 -0.2997197031782867 -0.5414528604778229
802602232 -0.4035624489094503 -0.4525117591291361
805452294 -0.4898918454846866 -0.34587029571314387
808302356 -0.5519914401020825 -0.22951970178211456
811152418 -0.5895141569542399 -0.10557832386695318
814002480 -0.6008837596325991 0.020677617441084557
816852542 -0.5852107687167983 0.14235315365839887
819702604 -0.5399011904207666 0.2549774922099823
822552666 -0.4730081301022178 0.3561351186356461
825402728 -0.3773379845743263 0.4364377845433115
828252790 -0.26538704542175695 0.4983952935727871
831102852 -0.14126549878420352 0.5324250044676245
833952914 -0.009113188927784704 0.538626223030601
836802976 0.11973157348784051 0.5150583089548804
839653038 0.2379513282365796 0.46747294501707676
842503100 0.3424384154656535 0.3974431338766718
845353162 0.4273474995960665 0.30972768883616303
848203224 0.4922197590444406 0.20972845520197556
851053286 0.5315143333041823 0.10457473467573546
853903348 0.5501067270822604 -0.0016970985949093498
856753410 0.5472053159518091 -0.10428084651548442
859603472 0.5224431687525477 -0.20616575447930685
862453534 0.4805200847180628 -0.29580209407931685
865303596 0.4224299681124639 -0.37590794390094084
868153658 0.3487170959186906 -0.44097754539004586
871003720 0.2673356673404911 -0.4875209902495433
873853782 0.17697249138892027 -0.5196994303003846
876703844 0.08575965292118419 -0.5339832101805875
879553906 -0.0012279782198108445 -0.5274946301871839
882403968 -0.08453343273033127 -0.5056937993736035
885254030 -0.15995290123449843 -0.46630520042207696
888104092 -0.2282921652224915 -0.41315565901981854
890954154 -0.28188047299770386 -0.34787805867914395
893804216 -0.3259859658803874 -0.2699854861696109
896654278 -0.3576013540103316 -0.1834211863106474
899504340 -0.37444278899878813 -0.09115983808544836
902354402 -0.37208953892785884 -0.0005584382125479876
905204464 -0.35374293953995073 0.08639716170358523
908054526 -0.3222970432825141 0.16849587982554215
910904588 -0.2781708371218821 0.23839132485962455
913754650 -0.22326192800066313 0.29276652671518516
916604712 -0.15889289475695495 0.3305728964900412
919454774 -0.08642359897275965 0.3501954849411142
922304836 -0.015907266987959506 0.35026277032657155
925154898 0.05293684863488566 0.3330234142112345
928004960 0.12009648217806085 0.2997661008290376
930855022 0.18025733328699473 0.25019755741677446
933705084 0.2269088110522193 0.19147958358445782
936555146 0.2642578296492628 0.12768596836755933
939405208 0.2899419937164403 0.06053009964845554
942255270 0.3026967414014347 -0.005695730143680564
945105332 0.3064530624538573 -0.06606708459968792
947955394 0.2999984645880332 -0.12001920785178394
950805456 0.2816875647019604 -0.16933560469978895
953655518 0.25802617830015173 -0.2070969265123835
956505580 0.23086308199564526 -0.24032632236948148
959355642 0.19402752961683256 -0.2645888940769112
962205704 0.15178197823362305 -0.28184268539775675
965055766 0.10601478961052349 -0.2972870004055749
967905828 0.05789828980290409 -0.30410627684674324
970755890 0.01014151087047071 -0.30650960652152215
973605952 -0.03848546607566548 -0.30380079148564126
976456014 -0.08433399080037526 -0.29678598466115363
979306076 -0.12783329508637759 -0.2882671828863978
982156138 -0.16645232437829086 -0.27657378967609825
985006200 -0.19926657021371577 -0.25696522614878753
987856262 -0.227818188972991 -0.2426819392025708
990706324 -0.24107117577752246 -0.2199806441397736
993556386 -0.2507634896423247 -0.1930061340259664
996406448 -0.2508091787841003 -0.16720844407456886
999256510 -0.24386188636428424 -0.1390053575111608
1002106572 -0.22784366891003646 -0.10576766555852456
1004956634 -0.20747273719252296 -0.0680519043053308
1007806696 -0.18323218145055953 -0.02973689171372485
1010656758 -0.15763031111504522 0.008931012134890962
1013506820 -0.12973300615691277 0.04573514643292218
1016356882 -0.09844812139171705 0.09028759244411778
1019206944 -0.06434507250574306 0.13854323740741878
1022057006 -0.0252045393788232 0.17625400798141067
1024907068 0.014026452080443468 0.20662150067799095
1027757130 0.05102703477647703 0.22828039810892362
1030607192 0.09620716124548812 0.2387810329060276
1033457254 0.13829668116542335 0.23690424203688978
1036307316 0.18146547515307024 0.22207517467993906
1039157378 0.222075348608093 0.19081949364872453
1042007440 0.254753036194229 0.1450816128870135
1044857502 0.2795985561087516 0.08977761667945776
1047707564 0.2969886930892782 0.027169010010090987
1050557626 0.30539032539338384 -0.04749318509046137
1053407688 0.30375617607302674 -0.1293981869017323
1056257750 0.2883656759494238 -0.20716053345942162
1059107812 0.26031304500962527 -0.2836553436834464
1061957874 0.21855247662568056 -0.3533150518105876
1064807936 0.1652825541860516 -0.41297685075046175
1067657998 0.10132330803590331 -0.45303763021046894
1070508060 0.027992145444417468 -0.4807094787160291
1073358122 -0.05846509298094233 -0.48949862357060464
1076208184 -0.14930886877473867 -0.47504773595038674
1079058246 -0.23389082308456852 -0.4423087221428959
1081908308 -0.3150654989772786 -0.3928644975866637
1084758370 -0.39496851549140677 -0.32686650401682066
1087608432 -0.46016620811918535 -0.24413138274192878
1090458494 -0.5059826323576717 -0.14970328823562196
1093308556 -0.5363235050754671 -0.05890647588415842
1096158618 -0.5513854619036873 0.04138878121676378
1099008680 -0.5423999606814003 0.13840596383483192
1101858742 -0.5129671324318413 0.217905200586102
1104708804 -0.4671443805616328 0.2896219884934445
1107558866 -0.4008164009528193 0.3535516792558266
1110408928 -0.322364669642846 0.40277123679686944
1113258990 -0.22622949846851484 0.4326203483894173
1116109052 -0.1261973237334495 0.4418449020811964
1118959114 -0.019703159552274398 0.4357181633467796
1121809176 0.09373730769828897 0.41213096964211915
1124659238 0.1966119269973611 0.36220534773879953
1127509300 0.29341253664147693 0.30191509082228146
1130359362 0.3855902438611089 0.21557016462446454
1133209424 0.460920928456888 0.11201401816722367
1136059486 0.5067475892010873 0.0028540874859432435
1138909548 0.530460697553609 -0.12515493505652847
1141759610 0.5279530741464226 -0.25806820369452743
1144609672 0.4772001459676751 -0.39901344226555907
1147459734 0.3960736266502414 -0.5189292075403567
1150309796 0.2957806894035841 -0.6125661776023545
1153159858 0.16959908113720504 -0.6941258484093146
1156009920 0.023433757660093642 -0.7400007676479676
1158859982 -0.11688242572487578 -0.7408979987591039
1161710044 -0.26056149040268284 -0.7126284743556918
1164560106 -0.38541549471643427 -0.6476221078509019
1167410168 -0.4943825927907708 -0.5613010049244102
1170260230 -0.5655101723177933 -0.4553990152367611
1173110292 -0.612720733339075 -0.3359684943595516
1175960354 -0.6323934582208113 -0.20874945692193905
1178810416 -0.6208181832757116 -0.07759355286102113
1181660478 -0.5887979438671845 0.03799478638186378
1184510540 -0.5386512490327601 0.14137926134985393
1187360602 -0.46905647848689597 0.2371409638598386
1190210664 -0.3983976061834318 0.31472091469112967
1193060726 -0.3101957175717524 0.375677266769761
1195910788 -0.21045614807646856 0.418717272054396
1198760850 -0.11274202787781029 0.4416651468815388
1201610912 -0.015045042599107782 0.45069050522645715
1204460974 0.08092583019440036 0.4362464284973084
1207311036 0.17364862998520011 0.39783757135568576
1210161098 0.26055903418913684 0.34308711248602797
1213011160 0.3292793674602036 0.27417175010613787
1215861222 0.38497526137406474 0.19105062599732012
1218711284 0.4249086864649144 0.09361981913505785
1221561346 0.43851433971718123 -0.009389914132457119
1224411408 0.42678235851545193 -0.10816535437073897
1227261470 0.39586773070186365 -0.2019846523089365
1230111532 0.34113509143488313 -0.28088596488658696
1232961594 0.26584140985132587 -0.34326675296819437
1235811656 0.17733874507727415 -0.3805533011598904
1238661718 0.0733328300079203 -0.3971278462589836
1241511780 -0.03016104693954722 -0.3835940812471528
1244361842 -0.12195709067494293 -0.35378742606828284
1247211904 -0.20799045107917016 -0.30344615897824384
1250061966 -0.2771556849719396 -0.2469593190664256
1252912028 -0.33591126251989883 -0.18729099484673561
1255762090 -0.3805051357168042 -0.12479896319751826
1258612152 -0.4112841112268143 -0.06190803280555817
1261462214 -0.4273031529091891 -0.006041604254750632
1264312276 -0.43052145393109836 0.03845983569979437
1267162338 -0.4200500216140446 0.07560467410734248
1270012400 -0.4057926102144061 0.09939136560530427
1272862462 -0.3819871919928477 0.11710950156669911
1275712524 -0.3326370656297225 0.13898727520010418
1278562586 -0.30512781733901134 0.14368653797841766
1281412648 -0.27820425888887257 0.14129498585218989
1284262710 -0.24438111532469026 0.13521425636047602
1287112772 -0.22313333471638672 0.12727639671590393
1289962834 -0.19795267465783845 0.129777003118448
1292812896 -0.17962253184811489 0.12353119139424516
1295662958 -0.15572988823609937 0.12703857259593435
1298513020 -0.14276456495056977 0.12750930904512353
1301363082 -0.12644246667647321 0.13805316918699187
1304213144 -0.11387176472247229 0.1336482571154773
1307063206 -0.09746599289506361 0.1441918548320947
1309913268 -0.08194451980980942 0.153140245787655
1312763330 -0.06895673189798147 0.1517919947341601
1315613392 -0.048196786510169794 0.14867243132146207
1318463454 -0.03226118456561673 0.14008528536240225
1321313516 -0.0016436333648161363 0.12037039004086253
1324163578 0.027398037887979745 0.09428328220168701
1327013640 0.06453744695051283 0.05970150935345885
1329863702 0.09296428054898503 0.01534545160264925
1332713764 0.11690937913997283 -0.037690370277691614
1335563826 0.14787950894450114 -0.10472740272634937
1338413888 0.163395965105933 -0.17136905565057445
1341263950 0.1675518777007489 -0.22887376118851954
1344114012 0.15773648994168982 -0.2954727183124009
1346964074 0.13079823247278738 -0.3438054252959524
1349814136 0.08754631033821492 -0.38622155955929727
1352664198 0.01992898241458146 -0.3992541637334193
1355514260 -0.06543798196597597 -0.40572992282596804
1358364322 -0.16539206779055413 -0.3834815678463016
1361214384 -0.25287748094340684 -0.34037146399068496
1364064446 -0.3388637923491718 -0.276227437187742
1366914508 -0.4266860420559622 -0.1920794366590579
1369764570 -0.49758285507188005 -0.10470436947343639
1372614632 -0.5448508838978782 -0.02433788643628302
1375464694 -0.5757334529195689 0.07252022810199882
1378314756 -0.5877136623860809 0.15398365853149507
1381164818 -0.5821707644954918 0.2369934740076317
1384014880 -0.5519667665078236 0.3035072866096968
1386864942 -0.5205818375037207 0.37356936921968037
1389715004 -0.4598573134045899 0.431134906058427
1392565066 -0.39114838034468674 0.4747634830908912
1395415128 -0.3056020893099272 0.515519979583727
1398265190 -0.20087140341926746 0.5544089022233544
1401115252 -0.08246224842751525 0.577557498745374
1403965314 0.03241956328435322 0.5822944450715127
1406815376 0.1590847404215106 0.5697040867721704
1409665438 0.2942114823094769 0.5347415772704059
1412515500 0.41439422257104275 0.4923487489893643
1415365562 0.5243914560603002 0.416950922426196
1418215624 0.6219169027110495 0.3039597053651656
1421065686 0.6811623808280378 0.16551076995563646
1423915748 0.6939337442778142 -0.008305261672136187
1426765810 0.6368675835371866 -0.18886483454372838
1429615872 0.5004385101139905 -0.3579108323946489
1432465934 0.3215298166416811 -0.5150141446190584
1435315996 0.11196321490322471 -0.6233276335848102
1438166058 -0.11088770397441472 -0.6412549292071839
1441016120 -0.3164769779158892 -0.6183626718545561
1443866182 -0.49834978843495176 -0.56990286390831
1446716244 -0.6293285512246161 -0.4902476747548471
1449566306 -0.7122501744713468 -0.39591887964386463
1452416368 -0.7629945009424938 -0.2901517137496634
1455266430 -0.7763202043758918 -0.18835392233378023
1458116492 -0.771318759512329 -0.07848215739698354
1460966554 -0.7418427767807726 0.02783796614669957
1463816616 -0.6943426343609297 0.14321131535598197
1466666678 -0.6321810605113481 0.26985309188406437
1469516740 -0.5614345103918732 0.39033542328458876
1472366802 -0.48941368768376586 0.5300295967343944
1475216864 -0.4152242637037401 0.6833702984065794
1478066926 -0.34853090391186253 0.8220188720656639
1480916988 -0.2727586529719723 0.9571365445479368
1483767050 -0.201662671128375 1.0976859477195884
1486617112 -0.10493065188324661 1.2230586976162605
1489467174 0.021315055957375977 1.2898451650244294
1492317236 0.14659600803732423 1.3513002084513
1495167298 0.2761546068273461 1.3628272490744215
1498017360 0.49065532192774447 1.2631329736028816
1500867422 0.6857949807251266 1.0343817886994116
1503717484 0.8595578372945286 0.7617386748581406
1506567546 0.9434665794425506 0.4221471708603513
1509417608 0.8983788628329236 0.049647302694518176
1512267670 0.750131681764382 -0.25285663792820057
1515117732 0.5662723992841493 -0.4677136715030353
1517967794 0.3576279681397345 -0.578785589924153
1520817856 0.15771470081014402 -0.6083365632568943
1523667918 0.020207673723547297 -0.5896065889332288
1526517980 -0.09823140819512567 -0.5233924558645573
1529368042 -0.19090643733540213 -0.4095609397093273
1532218104 -0.25579595981294484 -0.2851526643543116
1535068166 -0.30366169934519005 -0.14869361018788768
1537918228 -0.33711983962230974 -0.01473131062126876
1540768290 -0.36696366996963864 0.11484835439102256
1543618352 -0.39408167114819515 0.23048802598391507
1546468414 -0.405495363853227 0.3307136805279474
1549318476 -0.41968189235821063 0.4407361001726876
1552168538 -0.4184262772236145 0.49478395151823695
1555018600 -0.41548820558105226 0.5595148984434016
1557868662 -0.39779158330751413 0.6064570091685506
1560718724 -0.3636620197970515 0.6328199246965843
1563568786 -0.2042059368283241 0.6144445438796039
1566418848 -0.1634846862860724 0.5940853865555829
1569268910 -0.08637567123480937 0.5604574370558693
1572118972 -0.030159199696908265 0.5111591612110403
1574969034 0.038037509936848776 0.457045243405842
1577819096 0.10632394158656998 0.3795572881668856
1580669158 0.1781257130775217 0.31811986914135937
1583519220 0.23778796227243404 0.26219482633732677
1586369282 0.2910450449660095 0.19365782901611853
1589219344 0.3286905024898512 0.13515561169018292
1592069406 0.35836640720477814 0.09321778800889714
1594919468 0.37671514972311326 0.060502338378700754
1597769530 0.3869207898316509 0.05171021710880603
1600619592 0.43563684084324594 0.0603213637216946
1603469654 0.4378192128919637 0.0824079494516788
1606319716 0.4240490087923315 0.11293849342232896
1609169778 0.4191203647698216 0.14796153695061287
1612019840 0.40649262684382736 0.170337751382805
1614869902 0.4055176438255936 0.18847844771459496
1617719964 0.41543959187108853 0.20238524534038077
1620570026 0.4010550384433763 0.18444492486560565
1623420088 0.39633777657170843 0.1451882168658572
1626270150 0.38345350748727863 0.0934715929074561
1629120212 0.35245919503264705 0.02646105366700824
1631970274 0.32022507010026363 -0.03508323199777201
1634820336 0.27844457227440705 -0.09489230267508648
1637670398 0.22824306238076536 -0.15091856820689026
1640520460 0.16096168727803406 -0.18087844160092076
1643370522 0.12638576650194872 -0.19390219963304892
1646220584 0.0787900055508526 -0.19667621469862936
1649070646 0.03595437949506041 -0.16995079721403442
1651920708 0.012488447610674995 -0.11314867826253006
1654770770 -0.02043743394264466 -0.06452084413688122
1657620832 -0.04513186793464105 0.014429219764497986
1660470894 -0.06877654120614339 0.09795542374896726
1663320956 -0.08919696012909002 0.18817314773928576
1666171018 -0.11414464048379694 0.2812703913968056
1669021080 -0.10659408450294858 0.3857063423986764
1671871142 -0.10751059401463037 0.48022385831119246
1674721204 -0.08852151238054835 0.5829863465663079
1677571266 -0.053802562414283196 0.6782933728196168
1680421328 0.005040355699068473 0.7630403136260334
1683271390 0.10145766795208633 0.8347174957415775
1686121452 0.2132085190845712 0.8818674821567949
1688971514 0.3681799715262569 0.904209042182199
1691821576 0.5570958482099139 0.8867007778725096
1694671638 0.7615413213604383 0.8223541281776905
1697521700 0.9369843560252377 0.6903872123586118
1700371762 1.057507453844064 0.487337757128342
1703221824 1.1492803780248064 0.26608429408210466
1706071886 1.147202491300738 0.036786999090832266
1708921948 1.0651327887490833 -0.14067563614983317
1711772010 0.942959490983758 -0.3297608791286822
1714622072 0.8168503674485698 -0.43852304027455985
1717472134 0.6550028151878765 -0.5170287464098997
1720322196 0.4979606879109564 -0.5571413864190733
1723172258 0.3456577145317441 -0.5861488343091619
1726022320 0.19846323646155964 -0.5641591438796416
1728872382 0.059464752725765666 -0.5176153103300123
1731722444 -0.0509755344515035 -0.4660529255738417
1734572506 -0.14698514304026178 -0.3929084746798111
1737422568 -0.2234791827062378 -0.3136318308371436
1740272630 -0.28047682780460975 -0.2062901749490084
1743122692 -0.31675252803363485 -0.10485238773875845
1745972754 -0.32992555070461027 0.013500267011414515
1748822816 -0.3257931767570677 0.14633609522795052
1751672878 -0.29865980763415 0.3040176604187552
1754522940 -0.23128270517476907 0.46623144198368677
1757373002 -0.10173556472638613 0.640537477252631
1760223064 0.0641681293117997 0.8144231736562706
1763073126 0.2989375893003591 0.9469490855374953
1765923188 0.5851256559510901 0.9959097018706238
1768773250 0.8687865691788988 0.9732329261693757
1771623312 1.1601549778235485 0.8391753738575765
1774473374 1.3304106198289842 0.5622593733041681
1777323436 1.3932022911248283 0.2717988700166949
1780173498 1.369368022736605 -0.01644015357489838
1783023560 1.251670661535806 -0.257267958665034
1785873622 1.0656928028475434 -0.42481484396775604
1788723684 0.8879628198823466 -0.5822096984359924
1791573746 0.6887029886363982 -0.6570815938255912
1794423808 0.5133945650970336 -0.7272787301951612
1797273870 0.36625743219171397 -0.754335363491059
1800123932 0.24465837624431905 -0.7678081313547266
1802973994 0.1317787054194008 -0.7513105465879605
1805824056 0.046355194434973886 -0.7220218119903195
1808674118 -0.03329538166407169 -0.6723906625653859
1811524180 -0.09440231374812742 -0.6117985624512009
1814374242 -0.1365954417125552 -0.5306556608673135
1817224304 -0.17629644615182974 -0.4438944763713774
1820074366 -0.193334951259796 -0.3388142155963122
