# HZ S RI R 50
700000000 0.06788057452786878 -0.6484586645501537
702850062 -0.05796145331824705 -0.6616520664007556
705700124 -0.18069231655596948 -0.6530971175367343
708550186 -0.2931716280452016 -0.6275869266050838
711400248 -0.3952468949312319 -0.5826954454480499
714250310 -0.48799995472049656 -0.5184186344415542
717100372 -0.5644478389004698 -0.4306525703816933
719950434 -0.6219159615881272 -0.3182393365385787
722800496 -0.6536331561881613 -0.18875533765539493
725650558 -0.6596888393702267 -0.045730113249680196
728500620 -0.6316610498244419 0.10622500842203687
731350682 -0.5815181138218063 0.21754502194561467
734200744 -0.5015974189606278 0.36097905148488424
737050806 -0.39091267350344866 0.4863661063905844
739900868 -0.26146576825203044 0.5846872135502068
742750930 -0.11539824751843375 0.6494115843497151
745600992 0.031893308772397204 0.6779740306066755
748451054 0.17834877588660283 0.6723352176091006
751301116 0.31472218567945365 0.6350391113638129
754151178 0.43628612526825494 0.5645505534221439
757001240 0.5349371260261423 0.46836441991943184
759851302 0.6081710045290167 0.3500975046514453
762701364 0.6551626037924863 0.2203429509069132
765551426 0.6798563454899437 0.082139797525889
768401488 0.6778227468350914 -0.05335901855754238
771251550 0.6547246303984505 -0.18479277926831805
774101612 0.6103958359166516 -0.30469190285548653
776951674 0.5502769204003504 -0.41287515217470927
779801736 0.4757335765860349 -0.5046941990492267
782651798 0.387515980976682 -0.5785528046796943
785501860 0.2848838282479564 -0.6343235257464301
788351922 0.17660294378893965 -0.6647468350145613
791201984 0.0588447745906299 -0.6741813561598997
794052046 -0.062165857466466974 -0.6569956801767621
796902108 -0.1846628438343241 -0.6121778031884532
799752170 -0.2985042544674709 -0.5455431379531058
802602232 -0.40110707828446285 -0.4526902087730462
805452294 -0.48187946631268086 -0.3459377503808495
808302356 -0.5431972939044781 -0.22484348481175048
811152418 -0.5800316066708757 -0.0962783464536945
814002480 -0.5885786512307518 0.03211103862835376
816852542 -0.5714414479443504 0.15611534016042666
819702604 -0.5304414472245392 0.27141456422553417
822552666 -0.4621911690595023 0.3701624365087307
825402728 -0.3716005249146186 0.44783871424106236
828252790 -0.2629688206767136 0.5080952129414854
831102852 -0.14437791881982884 0.5376848079618184
833952914 -0.013522120528436977 0.5413105086919261
836802976 0.11073879961757334 0.5152816013866466
839653038 0.22836663957255404 0.4631257681687419
842503100 0.3315988454877764 0.3902954062499336
845353162 0.41803431340872627 0.2967618653268075
848203224 0.48240868880299775 0.19593058579926792
851053286 0.5234507868238619 0.08953570935094617
853903348 0.5452361199506716 -0.017801762812577074
856753410 0.5448810312274954 -0.11784124981252518
859603472 0.5240444061839475 -0.2189611451109803
862453534 0.4837203854493166 -0.30496586225831424
865303596 0.42794118152818317 -0.3830471275067163
868153658 0.3564306086739986 -0.4464462684544858
871003720 0.27511646494897607 -0.48874819100681033
873853782 0.18290421477937543 -0.5176190191372091
876703844 0.09422992793870631 -0.5282017203809466
879553906 0.0019523893183376062 -0.5191970205116734
882403968 -0.08562406923641906 -0.4938504939439789
885254030 -0.16281381832360012 -0.4540896648836148
888104092 -0.23419264737675596 -0.3983590564369529
890954154 -0.29388814106316014 -0.3306694533696023
893804216 -0.3368272368570184 -0.255855154999596
896654278 -0.3691740786600787 -0.16972893184430607
899504340 -0.38448774971419214 -0.08357216115325652
902354402 -0.3802227308902486 0.0018352147409106928
905204464 -0.3616763820628774 0.08514550399133468
908054526 -0.32702204635635496 0.16211008240249644
910904588 -0.28046535394947614 0.22714153613147267
913754650 -0.2214761958769988 0.2798878891074092
916604712 -0.15400197957332615 0.3151151554639603
919454774 -0.08138125576429382 0.3350463346284683
922304836 -0.00468430753383802 0.33598571858814
925154898 0.06437498467973463 0.32137622018872736
928004960 0.13216596533173913 0.29119020203552315
930855022 0.19244230925036088 0.24525273389789182
933705084 0.2387621949667573 0.19156603990064228
936555146 0.2755969086961308 0.1320904779745361
939405208 0.2979508920135296 0.06803459424657796
942255270 0.31010024595966945 0.0053333103795582485
945105332 0.3096381274871706 -0.054457269506102156
947955394 0.300385459485157 -0.1094584580995707
950805456 0.27792417839859723 -0.15850437299162348
953655518 0.24947342289512747 -0.20013230034945248
956505580 0.21617599516213798 -0.2356241853761517
959355642 0.17914419536078616 -0.26296848401086714
962205704 0.13357736056185418 -0.28405476553704195
965055766 0.08849172441145117 -0.3023152198048463
967905828 0.04130261004988053 -0.31138478478644005
970755890 -0.004097257393942716 -0.3159988415577471
973605952 -0.047615224351862696 -0.31453027925360405
976456014 -0.08881717396987782 -0.30848480904109693
979306076 -0.12620196966744154 -0.29895339665765847
982156138 -0.16042032751191507 -0.2849191959314223
985006200 -0.18598997938336248 -0.2637773040526235
987856262 -0.21008396841668844 -0.24711932155881616
990706324 -0.2265230661856291 -0.22180270635948524
993556386 -0.23122093791392653 -0.18973295807693488
996406448 -0.22968292559254427 -0.16433357186643147
999256510 -0.2278762004646523 -0.12888473569677814
1002106572 -0.214701112906247 -0.09267771691505872
1004956634 -0.2015244723935381 -0.051987667153311844
1007806696 -0.18276396940017203 -0.01324880846953986
1010656758 -0.16078600331502826 0.02506247444311175
1013506820 -0.1377374750802382 0.062025971797315
1016356882 -0.11209468374682752 0.10429095315717284
1019206944 -0.07812208523585848 0.14872072061605873
1022057006 -0.04018552973297879 0.1827315266684052
1024907068 -0.0015504918180469496 0.20615259566101382
1027757130 0.03893552515463444 0.2227345643295708
1030607192 0.08655333290152464 0.22801766328862566
1033457254 0.13465101892052492 0.22215288716943707
1036307316 0.18154833094315814 0.2028133727623587
1039157378 0.2233450706783173 0.16968640360836917
1042007440 0.26154268283093773 0.12403411323245425
1044857502 0.2882882182015914 0.07136227568664633
1047707564 0.3069428437661754 0.011616829041148267
1050557626 0.3177637550063065 -0.05949569377312315
1053407688 0.3131755832618653 -0.13257315124407346
1056257750 0.2957513885899649 -0.20430661042099219
1059107812 0.2700495439986279 -0.2743853484586309
1061957874 0.22974810751864919 -0.33539992753936826
1064807936 0.17011148353132824 -0.39066104778078675
1067657998 0.10041766639689209 -0.43201505323617473
1070508060 0.02556560198103398 -0.4573774211013491
1073358122 -0.06546534000396148 -0.46599280612444893
1076208184 -0.15996813774433907 -0.4549292924022616
1079058246 -0.24786460201084073 -0.4276840316434676
1081908308 -0.33223678007900664 -0.38224516970581424
1084758370 -0.4119853223210636 -0.32289151515892234
1087608432 -0.4769231952846656 -0.24625921128140088
1090458494 -0.5219084089624674 -0.15694094647156973
1093308556 -0.5475522120194004 -0.06271213321948048
1096158618 -0.5569333341892988 0.024605976305571833
1099008680 -0.5437347739906829 0.11797648949950533
1101858742 -0.5048306095065263 0.20520522911287323
1104708804 -0.45540355409941813 0.28060585296483664
1107558866 -0.3836687024237364 0.34605524267784193
1110408928 -0.2980382419424622 0.39838608674723336
1113258990 -0.20107275107160305 0.4307602458134721
1116109052 -0.10231763662049277 0.4436484470238418
1118959114 0.005657882529782731 0.44003418114209836
1121809176 0.11133061435550871 0.4197491235638672
1124659238 0.20858824475170115 0.37249839615558605
1127509300 0.2978861774088275 0.31157768144807313
1130359362 0.38253018965005386 0.22913422059457522
1133209424 0.44885145595330717 0.1231432977464823
1136059486 0.48881974192358285 0.008782805156932505
1138909548 0.5025551638641541 -0.1196205251370239
1141759610 0.49409843635529077 -0.2557715533055968
1144609672 0.44150243362913416 -0.39935176572753084
1147459734 0.36152155192572555 -0.5193993521859982
1150309796 0.265089912147439 -0.616665093974956
1153159858 0.1436664787146319 -0.7023670586627581
1156009920 0.00758898180919143 -0.7511424628652487
1158859982 -0.13129869518565943 -0.7508159673936028
1161710044 -0.25749662695985653 -0.7304948373036405
1164560106 -0.38445697492630004 -0.6638046130540781
1167410168 -0.4761646391192747 -0.5752440801428695
1170260230 -0.5474824736768724 -0.46244476534388956
1173110292 -0.5930198686047216 -0.3440232765734404
1175960354 -0.6100209550823436 -0.20679975498430112
1178810416 -0.600492937186049 -0.06919324777741613
1181660478 -0.5686351457648073 0.04977150759413692
1184510540 -0.5216598245541794 0.15680858347923302
1187360602 -0.45730246641477296 0.25597268768126785
1190210664 -0.3881637569933787 0.3381742872507554
1193060726 -0.3041936507623014 0.39731446305714885
1195910788 -0.2138425210049562 0.436467629316239
1198760850 -0.12194807571414147 0.45415540300101587
1201610912 -0.02434935558512212 0.4581977671819989
1204460974 0.06699009679306034 0.4343491858625442
1207311036 0.1594878123520099 0.38970365183685246
1210161098 0.24618141844379482 0.32585122717144216
1213011160 0.31333729382386544 0.25038509355094984
1215861222 0.3748812142142657 0.16253156340827846
1218711284 0.41586755938265196 0.06259576464051846
1221561346 0.4310470582116693 -0.040372088292587614
1224411408 0.4252401137791573 -0.13242556928458096
1227261470 0.40214196891341053 -0.2236893740987639
1230111532 0.3538594753804555 -0.29325027927806097
1232961594 0.2818017755261161 -0.3465789899700066
1235811656 0.19252165575682287 -0.38248937199188066
1238661718 0.09630822789514117 -0.3885406617500175
1241511780 -0.005929756188040008 -0.36991175452934216
1244361842 -0.0970058993720172 -0.33379047590386
1247211904 -0.18947777638205787 -0.2822898604330347
1250061966 -0.2647610357919251 -0.22507094659090998
1252912028 -0.32618500014368096 -0.1640259487996182
1255762090 -0.3792252349748831 -0.10360293585345186
1258612152 -0.41985200472622036 -0.04096245365005186
1261462214 -0.4389332230129568 0.0065128799569990235
1264312276 -0.4439488503664627 0.052781409880924564
1267162338 -0.43641207193325443 0.08230376921797435
1270012400 -0.4268073849814611 0.10421294145909214
1272862462 -0.40199614316804194 0.11684196251097813
1275712524 -0.3462334718231513 0.13472744338680986
1278562586 -0.31566052097144676 0.13630893769262442
1281412648 -0.2809869528471456 0.13083095816687998
1284262710 -0.24124902857828637 0.11936564392555828
1287112772 -0.2092651583526737 0.11186913371878268
1289962834 -0.1794026248398875 0.11023010063102984
1292812896 -0.15646035488711296 0.10609842357419952
1295662958 -0.13287247479822747 0.11328618940351512
1298513020 -0.11934249332503327 0.11612434366986094
1301363082 -0.10930761450447515 0.13581973006241418
1304213144 -0.09639327775900162 0.13950769980319508
1307063206 -0.0862154174143139 0.15437668418199338
1309913268 -0.08068108461007256 0.16876206400219246
1312763330 -0.06630871990689195 0.17435425437565233
1315613392 -0.05329256389045216 0.17201819022297002
1318463454 -0.03909665652542121 0.1652239692651278
1321313516 -0.014839485068671466 0.13905382586465323
1324163578 0.014287034665198843 0.10455557277261811
1327013640 0.047056453428292795 0.0649848739940739
1329863702 0.08029523711852248 0.014342613726418
1332713764 0.10207612904150856 -0.046268059569541144
1335563826 0.12526905251002088 -0.11846802384071782
1338413888 0.14712568105238336 -0.1946535096969776
1341263950 0.15664018419694925 -0.2577376053401604
1344114012 0.14832615200391988 -0.3198695092067049
1346964074 0.1266636673475129 -0.37655056610594134
1349814136 0.08604959514433994 -0.40906719680435877
1352664198 0.02810248148640291 -0.41149085993148454
1355514260 -0.05675188146172421 -0.4088892132772503
1358364322 -0.145741564966196 -0.38006199702279175
1361214384 -0.23098143331007398 -0.3276194531519616
1364064446 -0.31643609974996556 -0.26021315731754463
1366914508 -0.40142339861261717 -0.17286318029979147
1369764570 -0.46971607522026354 -0.08586249807483583
1372614632 -0.5208218330103861 -0.0038847016009197098
1375464694 -0.5569009962563356 0.0826753614418789
1378314756 -0.573862803658253 0.16783373745336286
1381164818 -0.5764642515329996 0.24201753962184047
1384014880 -0.5553606710940101 0.3099024817096693
1386864942 -0.5254402185940263 0.36969747159882943
1389715004 -0.46886397721188094 0.42759122762042173
1392565066 -0.4018808704305959 0.4712322096213824
1395415128 -0.31435065933572576 0.5087230338404863
1398265190 -0.20886892473612212 0.5492579683067048
1401115252 -0.08772549197384684 0.5663571592484576
1403965314 0.03362836797930554 0.5728885624542278
1406815376 0.16665867677118865 0.5585553061274094
1409665438 0.3042294699389044 0.528446643466026
1412515500 0.4348451407218182 0.48504370723514073
1415365562 0.5503236059494013 0.4026415087320535
1418215624 0.6370737129138948 0.300965897097736
1421065686 0.7000177637823171 0.15438399420372317
1423915748 0.7040454140765302 -0.017274064018972368
1426765810 0.6436313763803911 -0.19948465780861124
1429615872 0.49562748374701765 -0.3632396168078344
1432465934 0.31343079652736094 -0.5010787176561936
1435315996 0.09873456533031809 -0.5994358043370658
1438166058 -0.12130641762675538 -0.6155599746197998
1441016120 -0.31912264951405517 -0.5937073761521187
1443866182 -0.4950204363806096 -0.543093126701237
1446716244 -0.6265021269619462 -0.4714860065448819
1449566306 -0.7071608206532275 -0.38021553278911796
1452416368 -0.7553683474016745 -0.28229366353465174
1455266430 -0.7732110630491691 -0.1799357395616076
1458116492 -0.7612084906518913 -0.08275265179319133
1460966554 -0.7342755092287756 0.019025648046610385
1463816616 -0.6855856965247864 0.13122352965760994
1466666678 -0.6191482957548171 0.25377617213959336
1469516740 -0.5504870143633854 0.3769340632177549
1472366802 -0.4751394331722967 0.5192230640000868
1475216864 -0.40133257862818933 0.6757115003410296
1478066926 -0.33622734103189755 0.8175941560671366
1480916988 -0.2619985298784879 0.9597162269266534
1483767050 -0.1899581435116586 1.1084086241507847
1486617112 -0.09523348336306167 1.2305284836752022
1489467174 0.022208096125236207 1.2997742965801602
1492317236 0.14964643279510437 1.3583766877053063
1495167298 0.2724400654015217 1.3749335997797318
1498017360 0.4974237151768558 1.266846702668998
1500867422 0.6973032962891922 1.0350859504317877
1503717484 0.8556529661402978 0.7363921207416816
1506567546 0.9328076035493423 0.39154277733608067
1509417608 0.8736063239180324 0.028011745206996105
1512267670 0.7187936424598673 -0.28073362909414246
1515117732 0.5047520687068456 -0.49176028087568857
1517967794 0.32420087063364456 -0.5920728503645519
1520817856 0.14349899794155926 -0.6095843299118746
1523667918 0.0013365908895786372 -0.5807455245537063
1526517980 -0.10727100719688366 -0.5142663605906281
1529368042 -0.1845629482400689 -0.39562950377801753
1532218104 -0.24511748965134034 -0.2724897392987903
1535068166 -0.2824603713261267 -0.13238281490057996
1537918228 -0.31674996725497945 -0.008384337846349375
1540768290 -0.35193172005031853 0.11754090409512712
1543618352 -0.38585625674915724 0.23508473923667925
1546468414 -0.3890907194170684 0.3373112081785257
1549318476 -0.4109880202509984 0.44134533961885297
1552168538 -0.4162676540057173 0.495362673638287
1555018600 -0.4162991598502515 0.5546500671778364
1557868662 -0.404886696324531 0.5952875485253342
1560718724 -0.3729901204677689 0.6204282874785007
1563568786 -0.2156640491545009 0.6089488765579054
1566418848 -0.17367803605920024 0.5869899565551501
1569268910 -0.09230226810320281 0.5510597862214027
1572118972 -0.030139757822272878 0.5033793390624689
1574969034 0.043438564350919424 0.44365294254194537
1577819096 0.11955923187086907 0.36748179335916165
1580669158 0.18955696796179472 0.30510894839320873
1583519220 0.2687955127034704 0.22928061388316934
1586369282 0.3106849575480197 0.16405410943467372
1589219344 0.34898429023806005 0.11326386615124444
1592069406 0.38421566165872983 0.06898589114914996
1594919468 0.387462210493771 0.04904860017387674
1597769530 0.3896751320009603 0.04078151846996612
1600619592 0.4410809435704234 0.064361590515814
1603469654 0.43331899571201826 0.09107490150279289
1606319716 0.4170121781244047 0.1306248137282177
1609169778 0.4100957744355647 0.17050049827240193
1612019840 0.3992591556777814 0.19598207718902896
1614869902 0.39596536597736093 0.20856425343328044
1617719964 0.403748186023231 0.2179649123003904
1620570026 0.3934504337869315 0.1914387232858349
1623420088 0.39035473454090386 0.14363917169510176
1626270150 0.36702092599255176 0.07554340055893875
1629120212 0.3432243224729125 0.007531965894210519
1631970274 0.3029388243614005 -0.06346437733243179
1634820336 0.2550775037571767 -0.12359187727284958
1637670398 0.21938029134286546 -0.17553270820743141
1640520460 0.156088767352665 -0.2047675475386428
1643370522 0.11724712138090891 -0.2140269650438414
1646220584 0.07883637760404545 -0.20379297316246875
1649070646 0.04760802044933042 -0.1659987025880295
1651920708 0.021946492037743598 -0.11796238313192986
1654770770 0.0025511318170745884 -0.04304279493422272
1657620832 -0.02855640832572881 0.028962999699001537
1660470894 -0.04960358125630316 0.12237832723993229
1663320956 -0.07013163357479209 0.20919557803293376
1666171018 -0.09511737599748654 0.3082033244307332
1669021080 -0.09558521457447405 0.40196904923048754
1671871142 -0.10171947144360086 0.48899716186454467
1674721204 -0.09655969427983577 0.5770767578818516
1677571266 -0.05834684174235854 0.6634845393409794
1680421328 -0.00611818564478637 0.7502633749401051
1683271390 0.08018794046346117 0.8113917856655204
1686121452 0.19197992631339084 0.8532420288359387
1688971514 0.3467711405210577 0.8653675705837802
1691821576 0.5398762384666524 0.8417646260873234
1694671638 0.7407957119994366 0.7720626949450016
1697521700 0.9275275023034415 0.648536910715263
1700371762 1.0517678282848686 0.4515963795920776
1703221824 1.1489002600877636 0.24496255771161973
1706071886 1.1536123220946042 0.0069069740460739005
1708921948 1.074099868388002 -0.1691334384816316
1711772010 0.9545760116040779 -0.34145896635168443
1714622072 0.8298514828074521 -0.4559427153250525
1717472134 0.6688457536301351 -0.5240542728740994
1720322196 0.5084750458263402 -0.5633998762226514
1723172258 0.34561350245801864 -0.5719939981770563
1726022320 0.19436333457485025 -0.5473193807515104
1728872382 0.05561141942442982 -0.495723341725886
1731722444 -0.05363956454619439 -0.44161799489741493
1734572506 -0.15697424351315625 -0.3685270725113817
1737422568 -0.23314769345857028 -0.2925488894667555
1740272630 -0.2867728394205455 -0.18656687022107904
1743122692 -0.3218415962739272 -0.08890040960722814
1745972754 -0.33837619274421027 0.028788140081715215
1748822816 -0.32528494683538206 0.14531051509091186
1751672878 -0.2934950952288376 0.2947546895498732
1754522940 -0.21749919649057117 0.448341344501962
1757373002 -0.09662050435065737 0.607447128728811
1760223064 0.08220319337413655 0.7627054611475839
1763073126 0.3102448300757536 0.8976477341592461
1765923188 0.5839846774012047 0.9427732595216406
1768773250 0.8534282470575397 0.9318109729731001
1771623312 1.1505334380544692 0.7810233298107433
1774473374 1.2921404029152148 0.5712765556352647
1777323436 1.3827368649106175 0.2855896468990816
1780173498 1.365889264028078 0.004089915227710967
1783023560 1.2604311552942118 -0.25778958965178433
1785873622 1.0765775806144282 -0.41937346794500585
1788723684 0.8964547369886335 -0.5641133724666179
1791573746 0.687152225197122 -0.6392293838752776
1794423808 0.5162945944005267 -0.7091691651654196
1797273870 0.3563875709922954 -0.7373663299597125
1800123932 0.2277537449058662 -0.7556714333762147
1802973994 0.1204888036112788 -0.7425981733855765
1805824056 0.037057118146136714 -0.7198730807801723
1808674118 -0.04820038724921551 -0.6664160177591227
1811524180 -0.1050043564135787 -0.6082352170022242
1814374242 -0.14515053482538637 -0.5298380684286557
1817224304 -0.17962692552829002 -0.44249462106384146
