# HZ S RI R 50
700000000 0.05566750224898179 -0.6437041745508163
702850062 -0.06909881705845004 -0.6550767793665785
705700124 -0.19082925888940266 -0.6451949178328258
708550186 -0.30395558066949935 -0.6195673530806477
711400248 -0.4033489615452649 -0.5740567496050892
714250310 -0.49171678530414575 -0.5076262322882277
717100372 -0.5634717821854702 -0.42061792460912467
719950434 -0.6167676944232391 -0.31237005755281644
722800496 -0.6487907160399375 -0.18210999484463308
725650558 -0.650252531024042 -0.038111427893712795
728500620 -0.6191317598272728 0.11097155712917735
731350682 -0.5661173654351144 0.22116422313413325
734200744 -0.4864442640985673 0.36315933408745354
737050806 -0.3766619928797698 0.48710153658987526
739900868 -0.24606410444701254 0.5845785447531237
742750930 -0.10472469501544313 0.6458069475764406
745600992 0.04331274118537133 0.6747039663600012
748451054 0.18726569309992355 0.6680499420324347
751301116 0.32150256072391536 0.629067283981438
754151178 0.4388502648319886 0.5571595913733863
757001240 0.5324682657808494 0.4604858207120771
759851302 0.6045997042816531 0.3393177850554701
762701364 0.6487792923540955 0.21017575125832297
765551426 0.6704750966207306 0.07128255428107297
768401488 0.6674270319042827 -0.062251612616096005
771251550 0.6420374487458523 -0.1938399768145653
774101612 0.5969769871636793 -0.31621040574231024
776951674 0.5359425119409981 -0.42022535052511917
779801736 0.4594552876983383 -0.511986664697682
782651798 0.37413076091981806 -0.5809618165591995
785501860 0.272877866134915 -0.635609357212953
788351922 0.16658446310017158 -0.6634954754856089
791201984 0.051785778971955666 -0.6703296066997179
794052046 -0.06756102138141752 -0.65037671278588
796902108 -0.18679412400453912 -0.6020741728112617
799752170 -0.2978361455957872 -0.5333130170018723
802602232 -0.3964555750942739 -0.4409497746670549
805452294 -0.4773148774704504 -0.33129649668181377
808302356 -0.538597522574872 -0.20865255090512677
811152418 -0.5735439770489255 -0.08252228112669105
814002480 -0.581470804105324 0.04401568294677978
816852542 -0.5655918527779733 0.16645269229741824
819702604 -0.5238177353545914 0.27727413832880915
822552666 -0.4562010109827899 0.3761626517030413
825402728 -0.36619221941923846 0.4523755615946773
828252790 -0.25967401918370864 0.5060704077374245
831102852 -0.14119332289831119 0.5334205422712359
833952914 -0.009989182577631407 0.5349348208040027
836802976 0.11449393678565983 0.5047548134858524
839653038 0.23300212483530766 0.4491854250138178
842503100 0.3353580971465221 0.37496073239563005
845353162 0.41934239741081947 0.28233171447850214
848203224 0.48333712759053904 0.1816357791527007
851053286 0.523151151527315 0.07285442364208129
853903348 0.5432092438853203 -0.030591897020582685
856753410 0.541098975454325 -0.1293263081212609
859603472 0.5183725989935221 -0.22557129227626416
862453534 0.4786051019318486 -0.30886538173838013
865303596 0.4211801416490084 -0.3832128915715584
868153658 0.348864804843008 -0.44133450713801525
871003720 0.26590217501944274 -0.4819551899110774
873853782 0.17496027569499728 -0.5068563229395984
876703844 0.08366300752116138 -0.5161527709653396
879553906 -0.006990380352942055 -0.5064378064949118
882403968 -0.09424583841832193 -0.4824193746905879
885254030 -0.16899315848297647 -0.44110103149623764
888104092 -0.23985126225010783 -0.38768611097810707
890954154 -0.3004451780773079 -0.32233218335973896
893804216 -0.3394854795188481 -0.24881573938571588
896654278 -0.37053320092458225 -0.16741969387733252
899504340 -0.3837556491742029 -0.0821524552789832
902354402 -0.3785826767971861 0.0021656145465898486
905204464 -0.35694293702413865 0.08408570113457427
908054526 -0.3221429323512758 0.15828164467958555
910904588 -0.2721541789888051 0.2252911413586521
913754650 -0.21277253473550797 0.276182873048533
916604712 -0.14345805896469577 0.31272447371300277
919454774 -0.06741680391269361 0.3320326003983077
922304836 0.00650615137657694 0.3336246830958698
925154898 0.07674850392885614 0.3187271010819511
928004960 0.14024775510872522 0.28879743763973714
930855022 0.20039885897168164 0.24232412257956681
933705084 0.24301498668162544 0.18871795830371374
936555146 0.2758683459622272 0.12970423775445972
939405208 0.29561144105965825 0.0665616193619143
942255270 0.3023712357692104 0.0034306323101575558
945105332 0.30091761524053023 -0.056457761843058334
947955394 0.286045128313269 -0.11077489271510074
950805456 0.26427373273229754 -0.15902133705018506
953655518 0.237042461798463 -0.20097965467618467
956505580 0.20530351699759172 -0.23551046470411996
959355642 0.1668627725087252 -0.2628945530661198
962205704 0.12412027216974514 -0.28474003409039084
965055766 0.08147202128079657 -0.30132413720838563
967905828 0.03671193962750321 -0.3120755815609661
970755890 -0.006193013279926357 -0.3162137903260909
973605952 -0.04935168560854094 -0.31492684229790574
976456014 -0.08790154740641955 -0.3077472910398173
979306076 -0.12542039851019682 -0.2976617232076361
982156138 -0.15816304092808453 -0.28333433074384734
985006200 -0.1859006595044348 -0.25909609369501974
987856262 -0.20842053037453873 -0.23982457527995202
990706324 -0.2231787129330537 -0.21460565977182158
993556386 -0.231879098660968 -0.18250345942266127
996406448 -0.23167120385831505 -0.15207446827058255
999256510 -0.22652908479510706 -0.1177798434093616
1002106572 -0.2112333351238011 -0.08375980633543308
1004956634 -0.19860528605818858 -0.042976482916574556
1007806696 -0.17956091482074185 -0.006894506922420495
1010656758 -0.1582615883955317 0.02940684431215087
1013506820 -0.13569361904902158 0.06303443029704078
1016356882 -0.10821509201719542 0.10303451215016626
1019206944 -0.07442592217403143 0.14151844809635106
1022057006 -0.037879191407836 0.17442822317625048
1024907068 0.0005782787921230018 0.1987401199599071
1027757130 0.04086891863632821 0.21497403885988894
1030607192 0.0862052245867413 0.21999786692202897
1033457254 0.13452145856626752 0.21578947598174475
1036307316 0.18058780857102252 0.19487317545322544
1039157378 0.22371562622273727 0.16430077841468946
1042007440 0.260515458273776 0.11985368137949293
1044857502 0.28856134128100386 0.06770972539048832
1047707564 0.3072590278687834 0.009034596183006928
1050557626 0.3168928689639714 -0.05990305051308223
1053407688 0.313682509044425 -0.13276232064804047
1056257750 0.2962603051436591 -0.2035380540221849
1059107812 0.2644202480786412 -0.2734551670766225
1061957874 0.21879722941438381 -0.3370978682829255
1064807936 0.16451525555848268 -0.385384890415008
1067657998 0.08915040108711962 -0.4282803483809836
1070508060 0.013333307044468078 -0.4490494265063288
1073358122 -0.07632142877915689 -0.45762205653881466
1076208184 -0.16927745558586502 -0.442529180587117
1079058246 -0.25545767939150055 -0.41451272615824586
1081908308 -0.3354951166145552 -0.3665048273313283
1084758370 -0.41362084021408985 -0.30759604749843156
1087608432 -0.4733750464355019 -0.23163904680535927
1090458494 -0.5164857731417158 -0.14378865726530649
1093308556 -0.5383734554878654 -0.055497451255638555
1096158618 -0.5446572500606759 0.03563437121184546
1099008680 -0.5284580319606971 0.12509613972759498
1101858742 -0.49541605580820214 0.2058576488760801
1104708804 -0.4399319411102591 0.28112969438432533
1107558866 -0.37229571257872685 0.3424648415479356
1110408928 -0.2875623304857012 0.3944208328004398
1113258990 -0.19399715515645638 0.4241012876114684
1116109052 -0.0964858499047139 0.4362888030824393
1118959114 0.008522156094767088 0.4323524753910142
1121809176 0.1129274903712706 0.4116615208507121
1124659238 0.20872014303881467 0.3649548685209426
1127509300 0.3008992843956158 0.3045103636168967
1130359362 0.3783054356838728 0.2198561711090007
1133209424 0.44047833848527124 0.11891602814161982
1136059486 0.48511324310287146 -0.000652658651382433
1138909548 0.5023298011701717 -0.13026216898906937
1141759610 0.4865377589750667 -0.26388005880818693
1144609672 0.43149084133235505 -0.4024448898111688
1147459734 0.3500013246122015 -0.5205693344816316
1150309796 0.2512377074785085 -0.6152311650955389
1153159858 0.13243785421103935 -0.6959801095634707
1156009920 -0.00534309781621597 -0.7384134591163077
1158859982 -0.13625958636698426 -0.7379253006711354
1161710044 -0.2682697040237538 -0.710812076951168
1164560106 -0.3909924763504964 -0.6441001181289515
1167410168 -0.47923433691062967 -0.5576737822520147
1170260230 -0.5435394753009429 -0.4478394193208426
1173110292 -0.5884837192674589 -0.32163325101221857
1175960354 -0.6001622284132395 -0.19210543997735752
1178810416 -0.5851851103901624 -0.0621092172625714
1181660478 -0.5543628880112802 0.0557920534539245
1184510540 -0.5050286524359804 0.15883064005737427
1187360602 -0.4403791042768621 0.25357458850958814
1190210664 -0.37125453442054135 0.33032467694308015
1193060726 -0.28821686364081905 0.38896145825096173
1195910788 -0.1990668003989535 0.4266567979750261
1198760850 -0.11011412728780287 0.4469753193259439
1201610912 -0.017149769493665652 0.44958728604699627
1204460974 0.07426581478417807 0.4264690286138351
1207311036 0.16412629602673728 0.3838987442392603
1210161098 0.24767965241417492 0.3220410185654162
1213011160 0.31475078150251357 0.24965515075587402
1215861222 0.3708999884696034 0.16108687594021184
1218711284 0.40863361309159835 0.06292019669292524
1221561346 0.42455094257918446 -0.04084384839863095
1224411408 0.4169626083997952 -0.13409455172476328
1227261470 0.3934530348183277 -0.2234919292199253
1230111532 0.34054904832691085 -0.29290320801688197
1232961594 0.2670593330953278 -0.3494170395153241
1235811656 0.17939071668984646 -0.3804834734484168
1238661718 0.08579838636831548 -0.3902038950643544
1241511780 -0.017536453760155717 -0.36874441409540565
1244361842 -0.10916149149798976 -0.3346569540263655
1247211904 -0.19570172347632994 -0.2788315758064054
1250061966 -0.2669393808437617 -0.21959813475038
1252912028 -0.3219650642880347 -0.15611447877028026
1255762090 -0.37367368031796455 -0.09253390778645271
1258612152 -0.4088157329520699 -0.035026132205398526
1261462214 -0.42400341413691545 0.015221644394139588
1264312276 -0.4297671319187807 0.05596155909999946
1267162338 -0.42029300716877493 0.09007760220407632
1270012400 -0.40704413545193513 0.10851569064565282
1272862462 -0.38545943899890445 0.1213502926920943
1275712524 -0.3338967429084722 0.13755277013289283
1278562586 -0.3078455608897125 0.13546345338200003
1281412648 -0.275927813456967 0.12944459377735293
1284262710 -0.24045708046831324 0.12090322741260943
1287112772 -0.21483064435894464 0.11607987279570295
1289962834 -0.1830739454656867 0.11418411430079818
1292812896 -0.16095777209058038 0.11060647018918547
1295662958 -0.13569809572858277 0.11242508366021697
1298513020 -0.1216830170021268 0.12155185496531865
1301363082 -0.10555637990667772 0.13371160209670016
1304213144 -0.09090620050374498 0.13796626909560514
1307063206 -0.08054081860402955 0.15064610552868588
1309913268 -0.06919770869203229 0.15919471636768515
1312763330 -0.05437215304964436 0.16562930257827416
1315613392 -0.040928250110082304 0.1592353839355705
1318463454 -0.029304900476335827 0.1500898742568239
1321313516 -0.009691951825222811 0.12623674610965305
1324163578 0.017549446548322876 0.09695277949937375
1327013640 0.05019721491845714 0.06380787945378735
1329863702 0.07612774459825777 0.015760569585075684
1332713764 0.09744082152019033 -0.04068486317552574
1335563826 0.1225142632274886 -0.11332113369440422
1338413888 0.14482380348965546 -0.18002571441628087
1341263950 0.1499048173645553 -0.23859107956917777
1344114012 0.1403402191859294 -0.304481004485727
1346964074 0.1239404143108396 -0.35403527813579916
1349814136 0.08086909462659504 -0.3968540021651642
1352664198 0.020027734742274875 -0.4080514134143546
1355514260 -0.06024638318308876 -0.4078353343426325
1358364322 -0.15248041459457376 -0.3778380089333385
1361214384 -0.23296920914176056 -0.32905938313658367
1364064446 -0.31758122822201806 -0.26021528398247445
1366914508 -0.4083946463347768 -0.17397999590637597
1369764570 -0.4691908577918181 -0.08811785618225997
1372614632 -0.5157778651893118 0.0036605028051702342
1375464694 -0.5501548967723905 0.09149341526823225
1378314756 -0.565457427645536 0.17014067367736949
1381164818 -0.5605391474146818 0.25276578213545264
1384014880 -0.5364218621966954 0.31725956730684757
1386864942 -0.5067345355544806 0.37604082501652125
1389715004 -0.4475154683537397 0.4319243094817457
1392565066 -0.3816048204060416 0.47285109716260904
1395415128 -0.29498134188541947 0.506686721941663
1398265190 -0.1911786566541958 0.5409112073502933
1401115252 -0.07223091643795285 0.557981696065159
1403965314 0.040426149801680605 0.5600637847895885
1406815376 0.16855271626243082 0.5432861342645133
1409665438 0.29676415867565414 0.5056455418720802
1412515500 0.4232280004276567 0.4540542528889057
1415365562 0.5313241272771613 0.38345481573098283
1418215624 0.6234119440510538 0.27227898433727143
1421065686 0.6689441501623211 0.13289182560452706
1423915748 0.6852370508491271 -0.02458116130469484
1426765810 0.625144326833024 -0.20234721900972255
1429615872 0.49165197010079115 -0.3610851388326906
1432465934 0.30875300650542137 -0.5003041153363001
1435315996 0.10286920049684832 -0.5979315936237419
1438166058 -0.1146379472128827 -0.6101288104950398
1441016120 -0.315332779686252 -0.5851448051216355
1443866182 -0.4904876540160096 -0.5368609382069774
1446716244 -0.619620406937093 -0.4661164523306602
1449566306 -0.6954257019717269 -0.3770132726831971
1452416368 -0.7488540494766206 -0.2746762698246424
1455266430 -0.7627178925631903 -0.16814876435736648
1458116492 -0.7548268120670161 -0.07195741015883304
1460966554 -0.7245428267448044 0.03808088738241007
1463816616 -0.6730944549459269 0.14332378434387855
1466666678 -0.6086126700062324 0.26758040613263284
1469516740 -0.535631698797927 0.3871246351930021
1472366802 -0.45451318798161466 0.5242332862302743
1475216864 -0.3761453871434592 0.6763520676533128
1478066926 -0.2977342352122257 0.8215628786698694
1480916988 -0.23669560793894584 0.9446958395702876
1483767050 -0.14777831129767707 1.093120339537242
1486617112 -0.06128969584948085 1.2115965870692886
1489467174 0.07037575237199979 1.2696419514721424
1492317236 0.18367421983871618 1.331654626329516
1495167298 0.31746857420890223 1.3447095333133896
1498017360 0.5242219703167852 1.227112150353829
1500867422 0.7022686878084108 1.001170758382355
1503717484 0.8448503422089089 0.7167497159032141
1506567546 0.9121318751901247 0.390680486304477
1509417608 0.8509529965398265 0.034027488495432454
1512267670 0.7051955788527106 -0.251127600883064
1515117732 0.49990116820045755 -0.4650011133378622
1517967794 0.321547848909148 -0.5670615427949734
1520817856 0.1287621633885557 -0.594585896856335
1523667918 0.004395031728835919 -0.5723536226025795
1526517980 -0.10592406913605343 -0.5057481246968253
1529368042 -0.1866631897621235 -0.39672136630132127
1532218104 -0.24853134393115417 -0.2700042824749942
1535068166 -0.29019644732488753 -0.1371329612771557
1537918228 -0.3225406468271365 -0.00680724937964578
1540768290 -0.34677477462230294 0.1149277569240507
1543618352 -0.3783890059282141 0.23563410199107548
1546468414 -0.38363732477470514 0.34650590859260433
1549318476 -0.3913685436426129 0.4425176359725391
1552168538 -0.39960820105763306 0.49991417947301825
1555018600 -0.3917961753593797 0.5619207116053403
1557868662 -0.37646095521268724 0.6062401326354279
1560718724 -0.34427688321556926 0.6241337771407979
1563568786 -0.18867879268211307 0.6036057937568088
1566418848 -0.15046453693259806 0.5788218660533985
1569268910 -0.0770503067077028 0.5410629193507012
1572118972 -0.024355731078175267 0.4843077735591827
1574969034 0.03906312927593491 0.434695500930541
1577819096 0.11318044645976025 0.3510195755833702
1580669158 0.18051484992173367 0.2916078655816773
1583519220 0.2439923212878292 0.23020271522876465
1586369282 0.29167303696171365 0.16479793459498135
1589219344 0.33064406903733506 0.10732529075696
1592069406 0.36517552594220726 0.06970528816116495
1594919468 0.378538616958366 0.04481767820579296
1597769530 0.389462546415463 0.029506337934731834
1600619592 0.4441061477142286 0.045746080850249844
1603469654 0.4394952003949983 0.06938333706182154
1606319716 0.4204999523313149 0.10874732840550255
1609169778 0.41142400155568976 0.14428140301739523
1612019840 0.4124563786688296 0.1711975798957704
1614869902 0.39057858729924994 0.18650028234844057
1617719964 0.4076918137999808 0.19994963156937562
1620570026 0.38592076899757016 0.17672268075678446
1623420088 0.38598265818169114 0.14542761747723543
1626270150 0.3533889646446261 0.08216335802292578
1629120212 0.32340054764219683 0.020824389313083808
1631970274 0.2907069604459505 -0.04523788719447255
1634820336 0.24650625929955866 -0.09547298753178025
1637670398 0.20899443051670905 -0.15320949457462515
1640520460 0.15706446115137412 -0.18883790552375807
1643370522 0.11349825208500823 -0.21099247043317634
1646220584 0.07381867793312902 -0.20759798688787157
1649070646 0.04253866306815973 -0.17334670706372457
1651920708 0.016506091142117273 -0.13061364058460717
1654770770 -0.001702146574212845 -0.06817627572904389
1657620832 -0.025613268940789018 0.012092930661882896
1660470894 -0.04402346138881863 0.10056665381197474
1663320956 -0.06039903869473019 0.1959627465140473
1666171018 -0.09053602731938575 0.29280275261446026
1669021080 -0.08279296701777139 0.39134150003132534
1671871142 -0.08866187950487524 0.4789726441899476
1674721204 -0.07444738322161855 0.578647532072992
1677571266 -0.03222353050445858 0.6689785766747165
1680421328 0.021788808160980278 0.7509677023068216
1683271390 0.11172567491753406 0.8147382578364806
1686121452 0.21780852403067233 0.8572918347913996
1688971514 0.362915323202084 0.8591102979640596
1691821576 0.5503383843318725 0.8310824714486751
1694671638 0.7425384669251283 0.7574009497194711
1697521700 0.9037303941369749 0.6206242204728624
1700371762 1.008062379710155 0.4234548510794673
1703221824 1.0839064402686354 0.2084793731804681
1706071886 1.0780209624913033 -0.009647905556457857
1708921948 1.0026886833179742 -0.1730645627217516
1711772010 0.8919352808693269 -0.3491854526918682
1714622072 0.7792736831644796 -0.4617694773190426
1717472134 0.6367223108987776 -0.5193449818508084
1720322196 0.48607161094206314 -0.5510257108100629
1723172258 0.33203782159940864 -0.5702928975176453
1726022320 0.19209953873755936 -0.5466206819236684
1728872382 0.06434349945594416 -0.4908422243442003
1731722444 -0.038192284559449015 -0.439607510398235
1734572506 -0.13881390380429373 -0.3656386132959778
1737422568 -0.21362933745530635 -0.28925283196123863
1740272630 -0.2724562053098117 -0.1790723216620634
1743122692 -0.31009716427160383 -0.08146946831050661
1745972754 -0.3238995795800562 0.032205242774656494
1748822816 -0.31323458021380157 0.15740308738642148
1751672878 -0.2917216692498766 0.30655449663025486
1754522940 -0.2124000699256808 0.4581670320438587
1757373002 -0.1017017979295034 0.6152430212964085
1760223064 0.07050908611113965 0.7636239681769612
1763073126 0.2989460870977423 0.8770594569826916
1765923188 0.574134603772784 0.9010809662681322
1768773250 0.8376622167260153 0.8706001028224527
1771623312 1.1047667859590278 0.7144692225763792
1774473374 1.2386699726118007 0.50294122196494
1777323436 1.31325735922196 0.230386944769628
1780173498 1.2865103896209813 -0.04619499425049405
1783023560 1.193798996249299 -0.28587228183416474
1785873622 1.0210988844064923 -0.4287203535662983
1788723684 0.845950355540252 -0.568183041610834
1791573746 0.6626115270677284 -0.6354376209515119
1794423808 0.49375731992092287 -0.6965844103167742
1797273870 0.3499672859221967 -0.7226322147475565
1800123932 0.23138997085447222 -0.733920337016127
1802973994 0.12425057772199825 -0.7134115881899702
1805824056 0.04341158802606303 -0.6881669027651609
1808674118 -0.04855279288351238 -0.6389430367583151
1811524180 -0.10133185611291463 -0.5824110287553023
1814374242 -0.151352066961542 -0.5060637731921915
1817224304 -0.18743102649808124 -0.422098637756867
1820074366 -0.2066906011389174 -0.3274062330984397
